date Wed Oct 07 11:48:37.265 2026
base hex  timestamps absolute
internal events logged
Begin Triggerblock Wed Oct 07 11:48:37.267 2026
 0.000000 Start of measurement
 0.000000 1  400             Rx   d 6 00 78 B3 00 00 00
 0.003051 1  300             Rx   d 4 0C 00 00 00
 0.006646 1  200             Rx   d 8 47 00 00 00 57 00 00 00
 0.008546 1  CF00400x        Rx   d 8 FF FF 7D 1E 19 FF FF FF
 0.008546 1  CF00300x        Rx   d 8 FF 00 00 FF FF FF FF FF
 0.008546 1  18FEEE00x       Rx   d 8 3D 29 FF FF FF FF FF FF
 0.008546 1  18FEFC17x       Rx   d 8 FF C8 FF FF FF FF FF FF
 0.008546 1  18FEF700x       Rx   d 8 FF FF FF FF 02 01 FF FF
 0.012081 1  18FECA00x       Rx   d 6 00 FF 00 00 00 00
 0.017400 1  100             Rx   d 8 24 03 79 00 06 C8 81 00
 0.029449 1  18FEF200x       Rx   d 8 1E 00 00 FF FF FF FF FF
 0.067910 1  100             Rx   d 8 24 03 79 00 00 C8 81 00
 0.070482 1  CF00400x        Rx   d 8 FF FF 7D 1E 19 FF FF FF
 0.070482 1  CF00300x        Rx   d 8 FF 00 00 FF FF FF FF FF
 0.070482 1  18FEF10Bx       Rx   d 8 FF 05 00 FF FF FF FF FF
 0.106951 1  200             Rx   d 8 16 00 15 00 00 00 00 00
 0.118455 1  100             Rx   d 8 24 03 79 00 00 C8 81 00
 0.133742 1  CF00400x        Rx   d 8 FF FF 7D 1E 19 FF FF FF
 0.133742 1  CF00300x        Rx   d 8 FF 00 00 FF FF FF FF FF
 0.169203 1  100             Rx   d 8 24 03 79 00 00 C8 81 00
 0.174840 1  18FEF10Bx       Rx   d 8 FF 05 00 FF FF FF FF FF
 0.195437 1  CF00400x        Rx   d 8 FF FF 7D 1E 19 FF FF FF
 0.195437 1  CF00300x        Rx   d 8 FF 00 00 FF FF FF FF FF
 0.203601 1  300             Rx   d 4 0C 00 00 00
 0.207762 1  200             Rx   d 8 00 00 00 00 00 00 53 00
 0.219582 1  100             Rx   d 8 23 03 7A 00 04 C8 81 00
 0.256490 1  CF00400x        Rx   d 8 FF FF 7D 1B 19 FF FF FF
 0.256490 1  CF00300x        Rx   d 8 FF 00 00 FF FF FF FF FF
 0.270046 1  100             Rx   d 8 23 03 7A 00 00 C8 81 00
 0.277191 1  18FEF10Bx       Rx   d 8 FF 08 00 FF FF FF FF FF
 0.308432 1  200             Rx   d 8 00 00 00 00 00 00 00 00
 0.318135 1  CF00400x        Rx   d 8 FF FF 7D 1B 19 FF FF FF
 0.318135 1  CF00300x        Rx   d 8 FF 00 00 FF FF FF FF FF
 0.320437 1  100             Rx   d 8 23 03 7A 00 02 C8 81 00
 0.370967 1  100             Rx   d 8 23 03 7A 00 01 C8 81 00
 0.379303 1  CF00400x        Rx   d 8 FF FF 7D 1B 19 FF FF FF
 0.379303 1  CF00300x        Rx   d 8 FF 00 00 FF FF FF FF FF
 0.379303 1  18FEF10Bx       Rx   d 8 FF 08 00 FF FF FF FF FF
 0.404348 1  300             Rx   d 4 0C 00 00 00
 0.408810 1  200             Rx   d 8 01 00 00 00 35 00 00 00
 0.422111 1  100             Rx   d 8 23 03 7B 00 02 C8 82 00
 0.440657 1  CF00400x        Rx   d 8 FF FF 7D 18 19 FF FF FF
 0.440657 1  CF00300x        Rx   d 8 FF 00 00 FF FF FF FF FF
 0.472606 1  100             Rx   d 8 23 03 7B 00 06 C8 82 00
 0.481920 1  18FEF10Bx       Rx   d 8 FF 0A 00 FF FF FF FF FF
 0.500504 1  400             Rx   d 6 00 78 B4 00 00 00
 0.502708 1  CF00400x        Rx   d 8 FF FF 7D 18 19 FF FF FF
 0.502708 1  CF00300x        Rx   d 8 FF 00 00 FF FF FF FF FF
 0.509346 1  200             Rx   d 8 00 00 67 00 00 00 57 00
 0.523276 1  100             Rx   d 8 23 03 7B 00 00 C8 82 00
 0.543836 1  18FEF200x       Rx   d 8 1E 00 00 FF FF FF FF FF
 0.565026 1  CF00400x        Rx   d 8 FF FF 7D 18 19 FF FF FF
 0.565026 1  CF00300x        Rx   d 8 FF 00 00 FF FF FF FF FF
 0.573990 1  100             Rx   d 8 23 03 7B 00 06 C8 82 00
 0.585729 1  18FEF10Bx       Rx   d 8 FF 0A 00 FF FF FF FF FF
 0.604994 1  300             Rx   d 4 0C 00 00 00
 0.609874 1  200             Rx   d 8 59 00 73 00 00 00 67 00
 0.624781 1  100             Rx   d 8 24 03 7B 01 00 C8 82 00
 0.627032 1  CF00400x        Rx   d 8 FF FF 7D 20 19 FF FF FF
 0.627032 1  CF00300x        Rx   d 8 FF 01 00 FF FF FF FF FF
 0.675653 1  100             Rx   d 8 24 03 7B 01 00 C8 82 00
 0.688343 1  CF00400x        Rx   d 8 FF FF 7D 20 19 FF FF FF
 0.688343 1  CF00300x        Rx   d 8 FF 01 00 FF FF FF FF FF
 0.688343 1  18FEF10Bx       Rx   d 8 FF 0D 00 FF FF FF FF FF
 0.710424 1  200             Rx   d 8 36 00 00 00 37 00 00 00
 0.726461 1  100             Rx   d 8 24 03 7B 01 03 C8 82 00
 0.749733 1  CF00400x        Rx   d 8 FF FF 7D 20 19 FF FF FF
 0.749733 1  CF00300x        Rx   d 8 FF 01 00 FF FF FF FF FF
 0.777382 1  100             Rx   d 8 24 03 7B 01 05 C8 82 00
 0.790971 1  18FEF10Bx       Rx   d 8 FF 0D 00 FF FF FF FF FF
 0.805276 1  300             Rx   d 4 0C 00 00 00
 0.811084 1  200             Rx   d 8 54 00 00 00 00 00 4A 00
 0.812096 1  CF00400x        Rx   d 8 FF FF 7E 50 19 FF FF FF
 0.812096 1  CF00300x        Rx   d 8 FF 04 01 FF FF FF FF FF
 0.828148 1  100             Rx   d 8 2A 03 7C 04 00 C8 83 00
 0.881444 1  CF00400x        Rx   d 8 FF FF 7E 50 19 FF FF FF
 0.881444 1  CF00300x        Rx   d 8 FF 04 01 FF FF FF FF FF
 0.881444 1  100             Rx   d 8 2A 03 7C 04 00 C8 83 00
 0.904438 1  18FEF10Bx       Rx   d 8 FF 12 00 FF FF FF FF FF
 0.913688 1  200             Rx   d 8 00 00 00 00 15 00 00 00
 0.935080 1  100             Rx   d 8 2A 03 7C 04 02 C8 83 00
 0.945654 1  CF00400x        Rx   d 8 FF FF 7E 50 19 FF FF FF
 0.945654 1  CF00300x        Rx   d 8 FF 04 01 FF FF FF FF FF
 0.985794 1  100             Rx   d 8 2A 03 7C 04 00 C8 83 00
 1.001191 1  400             Rx   d 6 00 78 B3 00 00 00
 1.005932 1  300             Rx   d 4 0C 00 00 00
 1.007999 1  CF00400x        Rx   d 8 FF FF 7D 4A 19 FF FF FF
 1.007999 1  CF00300x        Rx   d 8 FF 00 00 FF FF FF FF FF
 1.009042 1  18FEF10Bx       Rx   d 8 FF 17 00 FF FF FF FF FF
 1.014707 1  200             Rx   d 8 00 00 55 00 47 00 0E 00
 1.014707 1  18FECA00x       Rx   d 6 00 FF 00 00 00 00
 1.030437 1  18FEEE00x       Rx   d 8 3E 2A FF FF FF FF FF FF
 1.030437 1  18FEFC17x       Rx   d 8 FF C8 FF FF FF FF FF FF
 1.030437 1  18FEF700x       Rx   d 8 FF FF FF FF 07 01 FF FF
 1.036961 1  100             Rx   d 8 29 03 7C 00 06 C8 83 00
 1.051755 1  18FEF200x       Rx   d 8 1E 00 00 FF FF FF FF FF
 1.072535 1  CF00400x        Rx   d 8 FF FF 7D 4A 19 FF FF FF
 1.072535 1  CF00300x        Rx   d 8 FF 00 00 FF FF FF FF FF
 1.087487 1  100             Rx   d 8 29 03 7C 00 00 C8 83 00
 1.113838 1  18FEF10Bx       Rx   d 8 FF 17 00 FF FF FF FF FF
 1.115528 1  200             Rx   d 8 00 00 08 00 61 00 00 00
 1.135297 1  CF00400x        Rx   d 8 FF FF 7D 4A 19 FF FF FF
 1.135297 1  CF00300x        Rx   d 8 FF 00 00 FF FF FF FF FF
 1.137858 1  100             Rx   d 8 29 03 7C 00 00 C8 83 00
 1.188742 1  100             Rx   d 8 29 03 7C 00 00 C8 83 00
 1.197309 1  CF00400x        Rx   d 8 FF FF 7D 4A 19 FF FF FF
 1.197309 1  CF00300x        Rx   d 8 FF 00 00 FF FF FF FF FF
 1.206940 1  300             Rx   d 4 0C 00 00 00
 1.216281 1  200             Rx   d 8 00 00 7F 00 00 00 4E 00
 1.218329 1  18FEF10Bx       Rx   d 8 FF 1C 00 FF FF FF FF FF
 1.240142 1  100             Rx   d 8 28 03 7C 00 00 C8 84 00
 1.258957 1  CF00400x        Rx   d 8 FF FF 7D 43 19 FF FF FF
 1.258957 1  CF00300x        Rx   d 8 FF 00 00 FF FF FF FF FF
 1.290696 1  100             Rx   d 8 28 03 7C 00 06 C8 84 00
 1.316576 1  200             Rx   d 8 00 00 00 00 00 00 80 00
 1.322098 1  CF00400x        Rx   d 8 FF FF 7D 43 19 FF FF FF
 1.322098 1  CF00300x        Rx   d 8 FF 00 00 FF FF FF FF FF
 1.322098 1  18FEF10Bx       Rx   d 8 FF 1C 00 FF FF FF FF FF
 1.351341 1  100             Rx   d 8 28 03 7C 00 00 C8 84 00
 1.372420 1  CF00400x        Rx   d 8 FF FF 7D 43 19 FF FF FF
 1.372970 1  CF00300x        Rx   d 8 FF 00 00 FF FF FF FF FF
 1.402515 1  100             Rx   d 8 28 03 7C 00 00 C8 84 00
 1.407599 1  300             Rx   d 4 0C 00 00 00
 1.417099 1  200             Rx   d 8 00 00 4A 00 02 00 3B 00
 1.434662 1  CF00400x        Rx   d 8 FF FF 7E 5E 19 FF FF FF
 1.434662 1  CF00300x        Rx   d 8 FF 02 01 FF FF FF FF FF
 1.434662 1  18FEF10Bx       Rx   d 8 FF 24 00 FF FF FF FF FF
 1.452917 1  100             Rx   d 8 2C 03 7D 02 06 C8 84 00
 1.496191 1  CF00400x        Rx   d 8 FF FF 7E 5E 19 FF FF FF
 1.496191 1  CF00300x        Rx   d 8 FF 02 01 FF FF FF FF FF
 1.502530 1  400             Rx   d 6 00 78 B2 00 00 00
 1.504103 1  100             Rx   d 8 2C 03 7D 02 02 C8 84 00
 1.517778 1  200             Rx   d 8 72 00 82 00 50 00 00 00
 1.537699 1  18FEF10Bx       Rx   d 8 FF 24 00 FF FF FF FF FF
 1.554840 1  100             Rx   d 8 2C 03 7D 02 00 C8 84 00
 1.558054 1  CF00400x        Rx   d 8 FF FF 7E 5E 19 FF FF FF
 1.558054 1  CF00300x        Rx   d 8 FF 02 01 FF FF FF FF FF
 1.558054 1  18FEF200x       Rx   d 8 26 00 02 FF FF FF FF FF
 1.605551 1  100             Rx   d 8 33 03 7D 05 08 C8 85 00
 1.608266 1  300             Rx   d 4 0C 00 00 00
 1.618329 1  200             Rx   d 8 0D 00 00 00 19 00 00 00
 1.620151 1  CF00400x        Rx   d 8 FF FF 7F 9B 19 FF FF FF
 1.620151 1  CF00300x        Rx   d 8 FF 05 02 FF FF FF FF FF
 1.640663 1  18FEF10Bx       Rx   d 8 FF 31 00 FF FF FF FF FF
 1.656323 1  100             Rx   d 8 33 03 7D 05 05 C8 85 00
 1.685775 1  CF00400x        Rx   d 8 FF FF 7F 9B 19 FF FF FF
 1.685775 1  CF00300x        Rx   d 8 FF 05 02 FF FF FF FF FF
 1.707260 1  100             Rx   d 8 33 03 7D 05 01 C8 85 00
 1.719011 1  200             Rx   d 8 4C 00 02 00 5A 00 00 00
 1.747573 1  CF00400x        Rx   d 8 FF FF 7F 9B 19 FF FF FF
 1.747573 1  CF00300x        Rx   d 8 FF 05 02 FF FF FF FF FF
 1.747573 1  18FEF10Bx       Rx   d 8 FF 31 00 FF FF FF FF FF
 1.757681 1  100             Rx   d 8 33 03 7D 05 09 C8 85 00
 1.808110 1  100             Rx   d 8 3F 03 7D 08 02 C8 85 00
 1.808677 1  300             Rx   d 4 0C 00 00 00
 1.809684 1  CF00400x        Rx   d 8 FF FF 80 FA 19 FF FF FF
 1.809684 1  CF00300x        Rx   d 8 FF 08 03 FF FF FF FF FF
 1.819387 1  200             Rx   d 8 49 00 00 00 00 00 56 00
 1.850697 1  18FEF10Bx       Rx   d 8 FF 45 00 FF FF FF FF FF
 1.858803 1  100             Rx   d 8 3F 03 7D 08 0E C8 85 00
 1.881106 1  CF00400x        Rx   d 8 FF FF 80 FA 19 FF FF FF
 1.881106 1  CF00300x        Rx   d 8 FF 08 03 FF FF FF FF FF
 1.909372 1  100             Rx   d 8 3F 03 7D 08 03 C8 85 00
 1.919567 1  200             Rx   d 8 00 00 00 00 00 00 00 00
 1.943087 1  CF00400x        Rx   d 8 FF FF 80 FA 19 FF FF FF
 1.943087 1  CF00300x        Rx   d 8 FF 08 03 FF FF FF FF FF
 1.959713 1  100             Rx   d 8 3F 03 7D 08 06 C8 85 00
 1.964426 1  18FEF10Bx       Rx   d 8 FF 45 00 FF FF FF FF FF
 2.002852 1  400             Rx   d 6 00 78 B2 00 00 00
 2.005446 1  CF00400x        Rx   d 8 FF FF 81 85 1A FF FF FF
 2.005446 1  CF00300x        Rx   d 8 FF 0C 04 FF FF FF FF FF
 2.009173 1  300             Rx   d 4 0C 00 00 00
 2.010201 1  100             Rx   d 8 51 03 7D 0C 10 C8 85 00
 2.015524 1  18FECA00x       Rx   d 6 00 FF 00 00 00 00
 2.020275 1  200             Rx   d 8 0B 00 00 00 6B 00 76 00
 2.046738 1  18FEEE00x       Rx   d 8 3F 2B FF FF FF FF FF FF
 2.046738 1  18FEFC17x       Rx   d 8 FF C8 FF FF FF FF FF FF
 2.046738 1  18FEF700x       Rx   d 8 FF FF FF FF 0B 01 FF FF
 2.060502 1  100             Rx   d 8 51 03 7D 0C 0E C8 85 00
 2.067875 1  CF00400x        Rx   d 8 FF FF 81 85 1A FF FF FF
 2.067875 1  CF00300x        Rx   d 8 FF 0C 04 FF FF FF FF FF
 2.067875 1  18FEF10Bx       Rx   d 8 FF 64 00 FF FF FF FF FF
 2.067875 1  18FEF200x       Rx   d 8 44 00 0C FF FF FF FF FF
 2.111152 1  100             Rx   d 8 51 03 7D 0C 09 C8 85 00
 2.120416 1  200             Rx   d 8 54 00 43 00 7B 00 23 00
 2.129953 1  CF00400x        Rx   d 8 FF FF 81 85 1A FF FF FF
 2.129953 1  CF00300x        Rx   d 8 FF 0C 04 FF FF FF FF FF
 2.161582 1  100             Rx   d 8 51 03 7D 0C 04 C8 85 00
 2.170643 1  18FEF10Bx       Rx   d 8 FF 64 00 FF FF FF FF FF
 2.191080 1  CF00400x        Rx   d 8 FF FF 81 85 1A FF FF FF
 2.191080 1  CF00300x        Rx   d 8 FF 0C 04 FF FF FF FF FF
 2.209851 1  300             Rx   d 4 0C 00 00 00
 2.212302 1  100             Rx   d 8 5A 03 7E 08 0F C8 85 00
 2.226144 1  200             Rx   d 8 1D 00 00 00 07 00 08 00
 2.252791 1  CF00400x        Rx   d 8 FF FF 80 D3 1A FF FF FF
 2.252791 1  CF00300x        Rx   d 8 FF 08 03 FF FF FF FF FF
 2.263221 1  100             Rx   d 8 5A 03 7E 08 07 C8 85 00
 2.273485 1  18FEF10Bx       Rx   d 8 FF 88 00 FF FF FF FF FF
 2.313899 1  100             Rx   d 8 5A 03 7E 08 0C C8 85 00
 2.314412 1  CF00400x        Rx   d 8 FF FF 80 D3 1A FF FF FF
 2.314412 1  CF00300x        Rx   d 8 FF 08 03 FF FF FF FF FF
 2.326758 1  200             Rx   d 8 79 00 25 00 00 00 12 00
 2.364572 1  100             Rx   d 8 5A 03 7E 08 06 C8 85 00
 2.375227 1  CF00400x        Rx   d 8 FF FF 80 D3 1A FF FF FF
 2.375227 1  CF00300x        Rx   d 8 FF 08 03 FF FF FF FF FF
 2.375227 1  18FEF10Bx       Rx   d 8 FF 88 00 FF FF FF FF FF
 2.410841 1  300             Rx   d 4 0C 00 00 00
 2.415387 1  100             Rx   d 8 5C 03 7E 04 0A C8 86 00
 2.427434 1  200             Rx   d 8 35 00 45 00 9C 00 8E 00
 2.436435 1  CF00400x        Rx   d 8 FF FF 7E E3 1A FF FF FF
 2.436435 1  CF00300x        Rx   d 8 FF 04 02 FF FF FF FF FF
 2.466106 1  100             Rx   d 8 5C 03 7E 04 06 C8 86 00
 2.477116 1  18FEF10Bx       Rx   d 8 FF AC 00 FF FF FF FF FF
 2.497681 1  CF00400x        Rx   d 8 FF FF 7E E3 1A FF FF FF
 2.497681 1  CF00300x        Rx   d 8 FF 04 02 FF FF FF FF FF
 2.503936 1  400             Rx   d 6 00 78 B2 00 00 00
 2.517072 1  100             Rx   d 8 5C 03 7E 04 00 C8 86 00
 2.527690 1  200             Rx   d 8 8D 00 19 00 94 00 9F 00
 2.559489 1  CF00400x        Rx   d 8 FF FF 7E E3 1A FF FF FF
 2.559489 1  CF00300x        Rx   d 8 FF 04 02 FF FF FF FF FF
 2.567607 1  100             Rx   d 8 5C 03 7E 04 09 C8 86 00
 2.581240 1  18FEF10Bx       Rx   d 8 FF AC 00 FF FF FF FF FF
 2.581751 1  18FEF200x       Rx   d 8 2C 00 04 FF FF FF FF FF
 2.611308 1  300             Rx   d 4 0C 00 00 00
 2.618026 1  100             Rx   d 8 5C 03 7F 03 03 C8 86 00
 2.622643 1  CF00400x        Rx   d 8 FF FF 7E E3 1A FF FF FF
 2.623063 1  CF00300x        Rx   d 8 FF 03 01 FF FF FF FF FF
 2.628565 1  200             Rx   d 8 2D 00 B0 00 6C 00 00 00
 2.669033 1  100             Rx   d 8 5C 03 7F 03 00 C8 86 00
 2.684631 1  CF00400x        Rx   d 8 FF FF 7E E3 1A FF FF FF
 2.685262 1  CF00300x        Rx   d 8 FF 03 01 FF FF FF FF FF
 2.685262 1  18FEF10Bx       Rx   d 8 FF CF 00 FF FF FF FF FF
 2.719829 1  100             Rx   d 8 5C 03 7F 03 01 C8 86 00
 2.729209 1  200             Rx   d 8 57 00 23 00 A5 00 56 00
 2.747118 1  CF00400x        Rx   d 8 FF FF 7E E3 1A FF FF FF
 2.747118 1  CF00300x        Rx   d 8 FF 03 01 FF FF FF FF FF
 2.771590 1  100             Rx   d 8 5C 03 7F 03 01 C8 86 00
 2.787967 1  18FEF10Bx       Rx   d 8 FF CF 00 FF FF FF FF FF
 2.808629 1  CF00400x        Rx   d 8 FF FF 87 61 1C FF FF FF
 2.809645 1  CF00300x        Rx   d 8 FF 1F 0B FF FF FF FF FF
 2.812257 1  300             Rx   d 4 0C 00 00 00
 2.822339 1  100             Rx   d 8 8C 03 80 1F 20 C8 87 00
 2.829657 1  200             Rx   d 8 12 00 28 00 B9 00 77 00
 2.870805 1  CF00400x        Rx   d 8 FF FF 87 61 1C FF FF FF
 2.870805 1  CF00300x        Rx   d 8 FF 1F 0B FF FF FF FF FF
 2.873057 1  100             Rx   d 8 8C 03 80 1F 22 C8 87 00
 2.891643 1  18FEF10Bx       Rx   d 8 FF 12 01 FF FF FF FF FF
 2.923497 1  100             Rx   d 8 8C 03 80 1F 15 C8 87 00
 2.930357 1  200             Rx   d 8 AD 00 80 00 CA 00 4F 00
 2.932362 1  CF00400x        Rx   d 8 FF FF 87 61 1C FF FF FF
 2.932362 1  CF00300x        Rx   d 8 FF 1F 0B FF FF FF FF FF
 2.974206 1  100             Rx   d 8 8C 03 80 1F 16 C8 87 00
 2.993861 1  CF00400x        Rx   d 8 FF FF 87 61 1C FF FF FF
 2.993861 1  CF00300x        Rx   d 8 FF 1F 0B FF FF FF FF FF
 2.993861 1  18FEF10Bx       Rx   d 8 FF 12 01 FF FF FF FF FF
 3.004536 1  400             Rx   d 6 00 78 B1 00 00 00
 3.013756 1  300             Rx   d 4 0C 00 00 00
 3.016285 1  18FECA00x       Rx   d 6 00 FF 00 00 00 00
 3.024841 1  100             Rx   d 8 B1 03 80 1C 1D C8 87 00
 3.030685 1  200             Rx   d 8 4F 00 67 00 C4 00 F8 00
 3.054972 1  CF00400x        Rx   d 8 FF FF 86 8B 1D FF FF FF
 3.054972 1  CF00300x        Rx   d 8 FF 1C 0A FF FF FF FF FF
 3.056004 1  18FEEE00x       Rx   d 8 40 2C FF FF FF FF FF FF
 3.056004 1  18FEFC17x       Rx   d 8 FF C8 FF FF FF FF FF FF
 3.056004 1  18FEF700x       Rx   d 8 FF FF FF FF 0E 01 FF FF
 3.075204 1  100             Rx   d 8 B1 03 80 1C 15 C8 87 00
 3.098658 1  18FEF10Bx       Rx   d 8 FF 6C 01 FF FF FF FF FF
 3.099163 1  18FEF200x       Rx   d 8 77 00 1C FF FF FF FF FF
 3.119507 1  CF00400x        Rx   d 8 FF FF 86 8B 1D FF FF FF
 3.119507 1  CF00300x        Rx   d 8 FF 1C 0A FF FF FF FF FF
 3.127276 1  100             Rx   d 8 B1 03 80 1C 20 C8 87 00
 3.131155 1  200             Rx   d 8 9E 00 72 00 84 00 23 00
 3.177845 1  100             Rx   d 8 B1 03 80 1C 15 C8 87 00
 3.181050 1  CF00400x        Rx   d 8 FF FF 86 8B 1D FF FF FF
 3.181050 1  CF00300x        Rx   d 8 FF 1C 0A FF FF FF FF FF
 3.203136 1  18FEF10Bx       Rx   d 8 FF 6C 01 FF FF FF FF FF
 3.214533 1  300             Rx   d 4 0C 00 00 00
 3.229468 1  100             Rx   d 8 D3 03 80 1C 1E C8 87 00
 3.231772 1  200             Rx   d 8 01 01 13 01 8D 00 B5 00
 3.244536 1  CF00400x        Rx   d 8 FF FF 86 99 1E FF FF FF
 3.245228 1  CF00300x        Rx   d 8 FF 1C 0A FF FF FF FF FF
 3.280034 1  100             Rx   d 8 D3 03 80 1C 18 C8 87 00
 3.306181 1  CF00400x        Rx   d 8 FF FF 86 99 1E FF FF FF
 3.306181 1  CF00300x        Rx   d 8 FF 1C 0A FF FF FF FF FF
 3.307212 1  18FEF10Bx       Rx   d 8 FF DA 01 FF FF FF FF FF
 3.331811 1  100             Rx   d 8 D3 03 80 1C 17 C8 87 00
 3.332362 1  200             Rx   d 8 A9 00 0F 01 05 01 CF 00
 3.368583 1  CF00400x        Rx   d 8 FF FF 86 99 1E FF FF FF
 3.368583 1  CF00300x        Rx   d 8 FF 1C 0A FF FF FF FF FF
 3.384912 1  100             Rx   d 8 D3 03 80 1C 14 C8 87 00
 3.409635 1  18FEF10Bx       Rx   d 8 FF 52 02 FF FF FF FF FF
 3.414881 1  300             Rx   d 4 0C 00 00 00
 3.436785 1  200             Rx   d 8 BF 00 20 01 48 01 2F 01
 3.436785 1  CF00400x        Rx   d 8 FF FF 85 57 1F FF FF FF
 3.436785 1  CF00300x        Rx   d 8 FF 18 09 FF FF FF FF FF
 3.436785 1  100             Rx   d 8 EB 03 81 18 1B C8 88 00
 3.488637 1  100             Rx   d 8 EB 03 81 18 0E C8 88 00
 3.500370 1  CF00400x        Rx   d 8 FF FF 85 57 1F FF FF FF
 3.500370 1  CF00300x        Rx   d 8 FF 18 09 FF FF FF FF FF
 3.504900 1  400             Rx   d 6 00 78 B2 00 00 00
 3.521530 1  18FEF10Bx       Rx   d 8 FF 52 02 FF FF FF FF FF
 3.537907 1  200             Rx   d 8 9A 00 35 01 3B 01 8A 00
 3.539524 1  100             Rx   d 8 EB 03 81 18 16 C8 88 00
 3.564043 1  CF00400x        Rx   d 8 FF FF 85 57 1F FF FF FF
 3.564043 1  CF00300x        Rx   d 8 FF 18 09 FF FF FF FF FF
 3.590476 1  100             Rx   d 8 EB 03 81 18 19 C8 88 00
 3.605130 1  18FEF200x       Rx   d 8 6A 00 18 FF FF FF FF FF
 3.615563 1  300             Rx   d 4 0C 00 00 00
 3.625790 1  CF00400x        Rx   d 8 FF FF 85 13 20 FF FF FF
 3.626302 1  CF00300x        Rx   d 8 FF 19 09 FF FF FF FF FF
 3.626302 1  18FEF10Bx       Rx   d 8 FF D4 02 FF FF FF FF FF
 3.639151 1  200             Rx   d 8 0F 01 BE 00 E0 00 A3 00
 3.642633 1  100             Rx   d 8 02 04 81 19 13 C8 88 00
 3.687319 1  CF00400x        Rx   d 8 FF FF 85 13 20 FF FF FF
 3.687319 1  CF00300x        Rx   d 8 FF 19 09 FF FF FF FF FF
 3.693473 1  100             Rx   d 8 02 04 81 19 1A C8 88 00
 3.728420 1  18FEF10Bx       Rx   d 8 FF D4 02 FF FF FF FF FF
 3.739875 1  200             Rx   d 8 4E 01 B8 00 73 01 E0 00
 3.743906 1  100             Rx   d 8 02 04 81 19 15 C8 88 00
 3.749147 1  CF00400x        Rx   d 8 FF FF 85 13 20 FF FF FF
 3.749147 1  CF00300x        Rx   d 8 FF 19 09 FF FF FF FF FF
 3.794637 1  100             Rx   d 8 02 04 81 19 16 C8 88 00
 3.811162 1  CF00400x        Rx   d 8 FF FF 85 C9 20 FF FF FF
 3.812193 1  CF00300x        Rx   d 8 FF 1A 09 FF FF FF FF FF
 3.816254 1  300             Rx   d 4 0C 00 00 00
 3.837781 1  18FEF10Bx       Rx   d 8 FF 5F 03 FF FF FF FF FF
 3.840407 1  200             Rx   d 8 AD 01 5D 01 F5 00 89 01
 3.845684 1  100             Rx   d 8 19 04 82 1A 17 C8 88 00
 3.878518 1  CF00400x        Rx   d 8 FF FF 85 C9 20 FF FF FF
 3.878518 1  CF00300x        Rx   d 8 FF 1A 09 FF FF FF FF FF
 3.896212 1  100             Rx   d 8 19 04 82 1A 1A C8 88 00
 3.940185 1  CF00400x        Rx   d 8 FF FF 85 C9 20 FF FF FF
 3.940185 1  CF00300x        Rx   d 8 FF 1A 09 FF FF FF FF FF
 3.940185 1  18FEF10Bx       Rx   d 8 FF 5F 03 FF FF FF FF FF
 3.940701 1  200             Rx   d 8 08 01 30 01 9E 01 19 01
 3.947446 1  100             Rx   d 8 19 04 82 1A 16 C8 88 00
 3.998513 1  100             Rx   d 8 19 04 82 1A 13 C8 88 00
 4.003468 1  CF00400x        Rx   d 8 FF FF 85 C9 20 FF FF FF
 4.003468 1  CF00300x        Rx   d 8 FF 1A 09 FF FF FF FF FF
 4.005487 1  400             Rx   d 6 00 78 B4 00 00 00
 4.016596 1  300             Rx   d 4 0C 00 00 00
 4.017121 1  18FECA00x       Rx   d 6 00 FF 00 00 00 00
 4.041045 1  200             Rx   d 8 C5 01 FD 01 4F 01 71 01
 4.045094 1  18FEF10Bx       Rx   d 8 FF EC 03 FF FF FF FF FF
 4.049206 1  100             Rx   d 8 2B 04 83 18 15 C8 88 00
 4.065850 1  CF00400x        Rx   d 8 FF FF 85 56 21 FF FF FF
 4.065850 1  CF00300x        Rx   d 8 FF 18 09 FF FF FF FF FF
 4.065850 1  18FEEE00x       Rx   d 8 41 2D FF FF FF FF FF FF
 4.065850 1  18FEFC17x       Rx   d 8 FF C8 FF FF FF FF FF FF
 4.079750 1  18FEF700x       Rx   d 8 FF FF FF FF 10 01 FF FF
 4.100166 1  100             Rx   d 8 2B 04 83 18 15 C8 88 00
 4.121666 1  CF00400x        Rx   d 8 FF FF 85 56 21 FF FF FF
 4.121666 1  CF00300x        Rx   d 8 FF 18 09 FF FF FF FF FF
 4.121666 1  18FEF200x       Rx   d 8 6B 00 18 FF FF FF FF FF
 4.146542 1  200             Rx   d 8 27 01 86 01 A2 01 8F 01
 4.147078 1  18FEF10Bx       Rx   d 8 FF EC 03 FF FF FF FF FF
 4.150809 1  100             Rx   d 8 2B 04 83 18 1D C8 88 00
 4.188510 1  CF00400x        Rx   d 8 FF FF 85 56 21 FF FF FF
 4.188510 1  CF00300x        Rx   d 8 FF 18 09 FF FF FF FF FF
 4.206006 1  100             Rx   d 8 2B 04 83 18 18 C8 88 00
 4.217330 1  300             Rx   d 4 0C 00 00 00
 4.247143 1  200             Rx   d 8 91 01 99 01 D6 01 B1 01
 4.250731 1  CF00400x        Rx   d 8 FF FF 85 DC 21 FF FF FF
 4.250731 1  CF00300x        Rx   d 8 FF 19 09 FF FF FF FF FF
 4.250731 1  18FEF10Bx       Rx   d 8 FF 7D 04 FF FF FF FF FF
 4.257386 1  100             Rx   d 8 3C 04 83 19 15 C8 88 00
 4.310746 1  100             Rx   d 8 3C 04 83 19 1C C8 88 00
 4.313665 1  CF00400x        Rx   d 8 FF FF 85 DC 21 FF FF FF
 4.314673 1  CF00300x        Rx   d 8 FF 19 09 FF FF FF FF FF
 4.349010 1  200             Rx   d 8 11 02 1E 02 D5 01 C9 01
 4.355558 1  18FEF10Bx       Rx   d 8 FF 7D 04 FF FF FF FF FF
 4.361556 1  100             Rx   d 8 3C 04 83 19 10 C8 88 00
 4.376930 1  CF00400x        Rx   d 8 FF FF 85 DC 21 FF FF FF
 4.376930 1  CF00300x        Rx   d 8 FF 19 09 FF FF FF FF FF
 4.412221 1  100             Rx   d 8 51 04 84 1C 1C C8 89 00
 4.418244 1  300             Rx   d 4 0C 00 00 00
 4.439488 1  CF00400x        Rx   d 8 FF FF 86 86 22 FF FF FF
 4.439488 1  CF00300x        Rx   d 8 FF 1C 0A FF FF FF FF FF
 4.450033 1  200             Rx   d 8 BD 01 B8 01 53 02 F6 01
 4.460768 1  18FEF10Bx       Rx   d 8 FF 17 05 FF FF FF FF FF
 4.463142 1  100             Rx   d 8 51 04 84 1C 18 C8 89 00
 4.506121 1  CF00400x        Rx   d 8 FF FF 86 86 22 FF FF FF
 4.506121 1  CF00300x        Rx   d 8 FF 1C 0A FF FF FF FF FF
 4.506121 1  400             Rx   d 6 00 78 B4 00 00 00
 4.514093 1  100             Rx   d 8 51 04 84 1C 16 C8 89 00
 4.550940 1  200             Rx   d 8 07 02 9B 01 2E 02 AF 01
 4.564964 1  100             Rx   d 8 51 04 84 1C 17 C8 89 00
 4.568150 1  CF00400x        Rx   d 8 FF FF 86 86 22 FF FF FF
 4.568150 1  CF00300x        Rx   d 8 FF 1C 0A FF FF FF FF FF
 4.568150 1  18FEF10Bx       Rx   d 8 FF 17 05 FF FF FF FF FF
 4.615703 1  100             Rx   d 8 62 04 85 1B 16 C8 89 00
 4.619652 1  300             Rx   d 4 0C 00 00 00
 4.629541 1  CF00400x        Rx   d 8 FF FF 86 11 23 FF FF FF
 4.629541 1  CF00300x        Rx   d 8 FF 1B 0A FF FF FF FF FF
 4.629541 1  18FEF200x       Rx   d 8 75 00 1B FF FF FF FF FF
 4.652002 1  200             Rx   d 8 FD 01 AF 02 0E 02 00 02
 4.666853 1  100             Rx   d 8 62 04 85 1B 1B C8 89 00
 4.670904 1  18FEF10Bx       Rx   d 8 FF B1 05 FF FF FF FF FF
 4.691655 1  CF00400x        Rx   d 8 FF FF 86 11 23 FF FF FF
 4.691655 1  CF00300x        Rx   d 8 FF 1B 0A FF FF FF FF FF
 4.717633 1  100             Rx   d 8 62 04 85 1B 15 C8 89 00
 4.756962 1  CF00400x        Rx   d 8 FF FF 86 11 23 FF FF FF
 4.756962 1  CF00300x        Rx   d 8 FF 1B 0A FF FF FF FF FF
 4.756962 1  200             Rx   d 8 42 02 21 02 EB 01 89 02
 4.768217 1  100             Rx   d 8 62 04 85 1B 14 C8 89 00
 4.778510 1  18FEF10Bx       Rx   d 8 FF B1 05 FF FF FF FF FF
 4.818795 1  100             Rx   d 8 71 04 85 1A 11 C8 89 00
 4.820065 1  300             Rx   d 4 0C 00 00 00
 4.820065 1  CF00400x        Rx   d 8 FF FF 85 85 23 FF FF FF
 4.820065 1  CF00300x        Rx   d 8 FF 1A 0A FF FF FF FF FF
 4.859223 1  200             Rx   d 8 66 02 A1 02 47 02 1F 02
 4.869523 1  100             Rx   d 8 71 04 85 1A 1C C8 89 00
 4.886212 1  CF00400x        Rx   d 8 FF FF 85 85 23 FF FF FF
 4.886730 1  CF00300x        Rx   d 8 FF 1A 0A FF FF FF FF FF
 4.886730 1  18FEF10Bx       Rx   d 8 FF 4D 06 FF FF FF FF FF
 4.920202 1  100             Rx   d 8 71 04 85 1A 13 C8 89 00
 4.948276 1  CF00400x        Rx   d 8 FF FF 85 85 23 FF FF FF
 4.949299 1  CF00300x        Rx   d 8 FF 1A 0A FF FF FF FF FF
 4.960204 1  200             Rx   d 8 78 02 A2 02 C3 02 22 02
 4.970834 1  100             Rx   d 8 71 04 85 1A 13 C8 89 00
 4.990098 1  18FEF10Bx       Rx   d 8 FF 4D 06 FF FF FF FF FF
 5.006890 1  400             Rx   d 6 00 78 B3 00 00 00
 5.011101 1  CF00400x        Rx   d 8 FF FF 85 D9 23 FF FF FF
 5.011101 1  CF00300x        Rx   d 8 FF 19 09 FF FF FF FF FF
 5.018144 1  18FECA00x       Rx   d 6 00 FF 00 00 00 00
 5.020751 1  300             Rx   d 4 0C 00 00 00
 5.021310 1  100             Rx   d 8 7B 04 85 19 12 C8 89 00
 5.060837 1  200             Rx   d 8 00 03 55 02 70 02 8E 02
 5.071947 1  100             Rx   d 8 7B 04 85 19 10 C8 89 00
 5.071947 1  CF00400x        Rx   d 8 FF FF 85 D9 23 FF FF FF
 5.072415 1  CF00300x        Rx   d 8 FF 19 09 FF FF FF FF FF
 5.072415 1  18FEEE00x       Rx   d 8 43 2F FF FF FF FF FF FF
 5.072415 1  18FEFC17x       Rx   d 8 FF C8 FF FF FF FF FF FF
 5.072415 1  18FEF700x       Rx   d 8 FF FF FF FF 12 01 FF FF
 5.093107 1  18FEF10Bx       Rx   d 8 FF E9 06 FF FF FF FF FF
 5.122652 1  100             Rx   d 8 7B 04 85 19 1A C8 89 00
 5.134233 1  CF00400x        Rx   d 8 FF FF 85 D9 23 FF FF FF
 5.134233 1  CF00300x        Rx   d 8 FF 19 09 FF FF FF FF FF
 5.134233 1  18FEF200x       Rx   d 8 6E 00 19 FF FF FF FF FF
 5.161224 1  200             Rx   d 8 8F 02 96 02 BE 02 BF 02
 5.173278 1  100             Rx   d 8 7B 04 85 19 16 C8 89 00
 5.196386 1  CF00400x        Rx   d 8 FF FF 85 D9 23 FF FF FF
 5.196386 1  CF00300x        Rx   d 8 FF 19 09 FF FF FF FF FF
 5.196386 1  18FEF10Bx       Rx   d 8 FF E9 06 FF FF FF FF FF
 5.221356 1  300             Rx   d 4 0C 00 00 00
 5.223912 1  100             Rx   d 8 81 04 85 17 19 C8 8A 00
 5.258281 1  CF00400x        Rx   d 8 FF FF 84 09 24 FF FF FF
 5.258281 1  CF00300x        Rx   d 8 FF 17 08 FF FF FF FF FF
 5.261955 1  200             Rx   d 8 F7 02 40 03 F7 02 E2 02
 5.274261 1  100             Rx   d 8 81 04 85 17 14 C8 8A 00
 5.299452 1  18FEF10Bx       Rx   d 8 FF 7B 07 FF FF FF FF FF
 5.320249 1  CF00400x        Rx   d 8 FF FF 84 09 24 FF FF FF
 5.320972 1  CF00300x        Rx   d 8 FF 17 08 FF FF FF FF FF
 5.325259 1  100             Rx   d 8 81 04 85 17 19 C8 8A 00
 5.368217 1  200             Rx   d 8 B2 02 96 02 F1 02 A4 02
 5.376268 1  100             Rx   d 8 81 04 85 17 16 C8 8A 00
 5.388889 1  CF00400x        Rx   d 8 FF FF 84 09 24 FF FF FF
 5.388889 1  CF00300x        Rx   d 8 FF 17 08 FF FF FF FF FF
 5.410146 1  18FEF10Bx       Rx   d 8 FF 7B 07 FF FF FF FF FF
 5.422338 1  300             Rx   d 4 0C 00 00 00
 5.426955 1  100             Rx   d 8 8D 04 86 1B 13 C8 8A 00
 5.450995 1  CF00400x        Rx   d 8 FF FF 86 69 24 FF FF FF
 5.450995 1  CF00300x        Rx   d 8 FF 1B 0A FF FF FF FF FF
 5.469224 1  200             Rx   d 8 FA 02 01 03 CB 02 3C 03
 5.477531 1  100             Rx   d 8 8D 04 86 1B 1A C8 8A 00
 5.507497 1  400             Rx   d 6 00 78 B4 00 00 00
 5.513096 1  CF00400x        Rx   d 8 FF FF 86 69 24 FF FF FF
 5.513604 1  CF00300x        Rx   d 8 FF 1B 0A FF FF FF FF FF
 5.513604 1  18FEF10Bx       Rx   d 8 FF 0F 08 FF FF FF FF FF
 5.528682 1  100             Rx   d 8 8D 04 86 1B 17 C8 8A 00
 5.570483 1  200             Rx   d 8 77 03 7C 03 6E 03 7F 03
 5.575494 1  CF00400x        Rx   d 8 FF FF 86 69 24 FF FF FF
 5.575494 1  CF00300x        Rx   d 8 FF 1B 0A FF FF FF FF FF
 5.579765 1  100             Rx   d 8 8D 04 86 1B 12 C8 8A 00
 5.616856 1  18FEF10Bx       Rx   d 8 FF 9F 08 FF FF FF FF FF
 5.622879 1  300             Rx   d 4 0C 00 00 00
 5.630063 1  100             Rx   d 8 93 04 87 18 16 C8 8A 00
 5.637595 1  CF00400x        Rx   d 8 FF FF 85 9A 24 FF FF FF
 5.637595 1  CF00300x        Rx   d 8 FF 18 09 FF FF FF FF FF
 5.637595 1  18FEF200x       Rx   d 8 6A 00 18 FF FF FF FF FF
 5.671217 1  200             Rx   d 8 77 03 F3 02 3B 03 89 03
 5.680898 1  100             Rx   d 8 93 04 87 18 1B C8 8A 00
 5.699466 1  CF00400x        Rx   d 8 FF FF 85 9A 24 FF FF FF
 5.699466 1  CF00300x        Rx   d 8 FF 18 09 FF FF FF FF FF
 5.721143 1  18FEF10Bx       Rx   d 8 FF 9F 08 FF FF FF FF FF
 5.731696 1  100             Rx   d 8 93 04 87 18 16 C8 8A 00
 5.762190 1  CF00400x        Rx   d 8 FF FF 85 9A 24 FF FF FF
 5.762190 1  CF00300x        Rx   d 8 FF 18 09 FF FF FF FF FF
 5.771740 1  200             Rx   d 8 79 03 BA 03 2F 03 E9 02
 5.784393 1  100             Rx   d 8 93 04 87 18 19 C8 8A 00
 5.823479 1  300             Rx   d 4 0C 00 00 00
 5.825496 1  CF00400x        Rx   d 8 FF FF 84 94 24 FF FF FF
 5.825496 1  CF00300x        Rx   d 8 FF 14 07 FF FF FF FF FF
 5.825496 1  18FEF10Bx       Rx   d 8 FF 24 09 FF FF FF FF FF
 5.835394 1  100             Rx   d 8 93 04 88 14 0B C8 8A 00
 5.872706 1  200             Rx   d 8 AC 03 F3 03 68 03 BF 03
 5.886283 1  100             Rx   d 8 93 04 88 14 17 C8 8A 00
 5.887296 1  CF00400x        Rx   d 8 FF FF 84 94 24 FF FF FF
 5.887296 1  CF00300x        Rx   d 8 FF 14 07 FF FF FF FF FF
 5.928269 1  18FEF10Bx       Rx   d 8 FF 24 09 FF FF FF FF FF
 5.937173 1  100             Rx   d 8 93 04 88 14 0E C8 8A 00
 5.949242 1  CF00400x        Rx   d 8 FF FF 84 94 24 FF FF FF
 5.949242 1  CF00300x        Rx   d 8 FF 14 07 FF FF FF FF FF
 5.973333 1  200             Rx   d 8 6D 03 34 03 4B 03 80 03
 5.988253 1  100             Rx   d 8 93 04 88 14 15 C8 8A 00
 6.008604 1  400             Rx   d 6 00 78 B4 00 00 00
 6.011325 1  CF00400x        Rx   d 8 FF FF 84 94 24 FF FF FF
 6.011325 1  CF00300x        Rx   d 8 FF 14 07 FF FF FF FF FF
 6.018934 1  18FECA00x       Rx   d 6 00 FF 00 00 00 00
 6.024418 1  300             Rx   d 4 0C 00 00 00
 6.031719 1  18FEF10Bx       Rx   d 8 FF A4 09 FF FF FF FF FF
 6.038806 1  100             Rx   d 8 97 04 88 17 1A C8 8A 00
 6.073765 1  200             Rx   d 8 F5 03 29 04 D3 03 70 03
 6.074295 1  CF00400x        Rx   d 8 FF FF 84 BA 24 FF FF FF
 6.074295 1  CF00300x        Rx   d 8 FF 17 08 FF FF FF FF FF
 6.074295 1  18FEEE00x       Rx   d 8 44 30 FF FF FF FF FF FF
 6.074295 1  18FEFC17x       Rx   d 8 FF C8 FF FF FF FF FF FF
 6.074295 1  18FEF700x       Rx   d 8 FF FF FF FF 15 01 FF FF
 6.089009 1  100             Rx   d 8 97 04 88 17 0F C8 8A 00
 6.137166 1  CF00400x        Rx   d 8 FF FF 84 BA 24 FF FF FF
 6.137678 1  CF00300x        Rx   d 8 FF 17 08 FF FF FF FF FF
 6.137678 1  18FEF10Bx       Rx   d 8 FF A4 09 FF FF FF FF FF
 6.139687 1  100             Rx   d 8 97 04 88 17 19 C8 8A 00
 6.158427 1  18FEF200x       Rx   d 8 69 00 17 FF FF FF FF FF
 6.174402 1  200             Rx   d 8 92 03 10 04 A5 03 6F 03
 6.190445 1  100             Rx   d 8 97 04 88 17 11 C8 8A 00
 6.199855 1  CF00400x        Rx   d 8 FF FF 84 BA 24 FF FF FF
 6.199855 1  CF00300x        Rx   d 8 FF 17 08 FF FF FF FF FF
 6.225085 1  300             Rx   d 4 0C 00 00 00
 6.243676 1  18FEF10Bx       Rx   d 8 FF 1F 0A FF FF FF FF FF
 6.243676 1  100             Rx   d 8 9E 04 88 18 14 C8 8B 00
 6.264449 1  CF00400x        Rx   d 8 FF FF 85 ED 24 FF FF FF
 6.264981 1  CF00300x        Rx   d 8 FF 18 09 FF FF FF FF FF
 6.275119 1  200             Rx   d 8 02 04 2F 04 B0 03 5A 04
 6.294560 1  100             Rx   d 8 9E 04 88 18 1C C8 8B 00
 6.326134 1  CF00400x        Rx   d 8 FF FF 85 ED 24 FF FF FF
 6.326134 1  CF00300x        Rx   d 8 FF 18 09 FF FF FF FF FF
 6.345162 1  100             Rx   d 8 9E 04 88 18 14 C8 8B 00
 6.347270 1  18FEF10Bx       Rx   d 8 FF 1F 0A FF FF FF FF FF
 6.375702 1  200             Rx   d 8 FE 03 16 04 09 04 E5 03
 6.388776 1  CF00400x        Rx   d 8 FF FF 85 ED 24 FF FF FF
 6.388776 1  CF00300x        Rx   d 8 FF 18 09 FF FF FF FF FF
 6.396266 1  100             Rx   d 8 9E 04 88 18 1A C8 8B 00
 6.426034 1  300             Rx   d 4 0C 00 00 00
 6.446782 1  100             Rx   d 8 A7 04 88 1B 16 C8 8B 00
 6.450431 1  CF00400x        Rx   d 8 FF FF 86 38 25 FF FF FF
 6.450431 1  CF00300x        Rx   d 8 FF 1B 0A FF FF FF FF FF
 6.450431 1  18FEF10Bx       Rx   d 8 FF 9C 0A FF FF FF FF FF
 6.476136 1  200             Rx   d 8 32 04 8D 04 F8 03 72 04
 6.497357 1  100             Rx   d 8 A7 04 88 1B 16 C8 8B 00
 6.509387 1  400             Rx   d 6 00 78 B5 00 00 00
 6.513020 1  CF00400x        Rx   d 8 FF FF 86 38 25 FF FF FF
 6.513020 1  CF00300x        Rx   d 8 FF 1B 0A FF FF FF FF FF
 6.548423 1  100             Rx   d 8 A7 04 88 1B 1E C8 8B 00
 6.554753 1  18FEF10Bx       Rx   d 8 FF 9C 0A FF FF FF FF FF
 6.576424 1  CF00400x        Rx   d 8 FF FF 86 38 25 FF FF FF
 6.576424 1  CF00300x        Rx   d 8 FF 1B 0A FF FF FF FF FF
 6.576947 1  200             Rx   d 8 C4 03 BE 03 3C 04 05 04
 6.599707 1  100             Rx   d 8 A7 04 88 1B 1B C8 8B 00
 6.627102 1  300             Rx   d 4 0C 00 00 00
 6.638193 1  CF00400x        Rx   d 8 FF FF 86 91 25 FF FF FF
 6.638193 1  CF00300x        Rx   d 8 FF 1C 0A FF FF FF FF FF
 6.650307 1  100             Rx   d 8 B2 04 89 1C 1C C8 8B 00
 6.659867 1  18FEF10Bx       Rx   d 8 FF 17 0B FF FF FF FF FF
 6.659867 1  18FEF200x       Rx   d 8 78 00 1C FF FF FF FF FF
 6.677748 1  200             Rx   d 8 81 04 FB 03 1D 04 9A 04
 6.700829 1  100             Rx   d 8 B2 04 89 1C 1A C8 8B 00
 6.701338 1  CF00400x        Rx   d 8 FF FF 86 91 25 FF FF FF
 6.701338 1  CF00300x        Rx   d 8 FF 1C 0A FF FF FF FF FF
 6.754205 1  100             Rx   d 8 B2 04 89 1C 1D C8 8B 00
 6.763148 1  CF00400x        Rx   d 8 FF FF 86 91 25 FF FF FF
 6.763148 1  CF00300x        Rx   d 8 FF 1C 0A FF FF FF FF FF
 6.763148 1  18FEF10Bx       Rx   d 8 FF 17 0B FF FF FF FF FF
 6.778659 1  200             Rx   d 8 F7 03 67 04 37 04 3D 04
 6.804618 1  100             Rx   d 8 B2 04 89 1C 1A C8 8B 00
 6.825330 1  CF00400x        Rx   d 8 FF FF 86 F8 25 FF FF FF
 6.825330 1  CF00300x        Rx   d 8 FF 1E 0B FF FF FF FF FF
 6.828325 1  300             Rx   d 4 0C 00 00 00
 6.855136 1  100             Rx   d 8 BF 04 8A 1E 1D C8 8B 00
 6.866533 1  18FEF10Bx       Rx   d 8 FF 94 0B FF FF FF FF FF
 6.879423 1  200             Rx   d 8 55 04 3F 04 6A 04 59 04
 6.887619 1  CF00400x        Rx   d 8 FF FF 86 F8 25 FF FF FF
 6.887619 1  CF00300x        Rx   d 8 FF 1E 0B FF FF FF FF FF
 6.905689 1  100             Rx   d 8 BF 04 8A 1E 15 C8 8B 00
 6.949756 1  CF00400x        Rx   d 8 FF FF 86 F8 25 FF FF FF
 6.949756 1  CF00300x        Rx   d 8 FF 1E 0B FF FF FF FF FF
 6.956431 1  100             Rx   d 8 BF 04 8A 1E 1B C8 8B 00
 6.970495 1  18FEF10Bx       Rx   d 8 FF 94 0B FF FF FF FF FF
 6.980104 1  200             Rx   d 8 91 04 8A 04 6C 04 AE 04
 7.007108 1  100             Rx   d 8 BF 04 8A 1E 1C C8 8B 00
 7.010129 1  400             Rx   d 6 00 78 B5 00 00 00
 7.011345 1  CF00400x        Rx   d 8 FF FF 86 F8 25 FF FF FF
 7.011345 1  CF00300x        Rx   d 8 FF 1E 0B FF FF FF FF FF
 7.019122 1  18FECA00x       Rx   d 6 00 FF 00 00 00 00
 7.028553 1  300             Rx   d 4 0C 00 00 00
 7.057742 1  100             Rx   d 8 CF 04 8A 20 1A C8 8B 00
 7.072944 1  CF00400x        Rx   d 8 FF FF 87 76 26 FF FF FF
 7.073458 1  CF00300x        Rx   d 8 FF 20 0C FF FF FF FF FF
 7.073458 1  18FEF10Bx       Rx   d 8 FF 14 0C FF FF FF FF FF
 7.080983 1  200             Rx   d 8 00 05 17 05 B1 04 21 05
 7.094220 1  18FEEE00x       Rx   d 8 45 31 FF FF FF FF FF FF
 7.094220 1  18FEFC17x       Rx   d 8 FF C8 FF FF FF FF FF FF
 7.095227 1  18FEF700x       Rx   d 8 FF FF FF FF 17 01 FF FF
 7.108593 1  100             Rx   d 8 CF 04 8A 20 21 C8 8B 00
 7.136184 1  CF00400x        Rx   d 8 FF FF 87 76 26 FF FF FF
 7.136184 1  CF00300x        Rx   d 8 FF 20 0C FF FF FF FF FF
 7.159541 1  100             Rx   d 8 CF 04 8A 20 19 C8 8B 00
 7.177950 1  18FEF10Bx       Rx   d 8 FF 14 0C FF FF FF FF FF
 7.178483 1  18FEF200x       Rx   d 8 85 00 20 FF FF FF FF FF
 7.181810 1  200             Rx   d 8 ED 04 E7 04 A8 04 C6 04
 7.198894 1  CF00400x        Rx   d 8 FF FF 87 76 26 FF FF FF
 7.198894 1  CF00300x        Rx   d 8 FF 20 0C FF FF FF FF FF
 7.210338 1  100             Rx   d 8 CF 04 8A 20 20 C8 8B 00
 7.229130 1  300             Rx   d 4 0C 00 00 00
 7.260521 1  CF00400x        Rx   d 8 FF FF 82 F3 25 FF FF FF
 7.260521 1  CF00300x        Rx   d 8 FF 0E 05 FF FF FF FF FF
 7.261047 1  100             Rx   d 8 BE 04 8B 0E 09 C8 8B 00
 7.281391 1  18FEF10Bx       Rx   d 8 FF 83 0C FF FF FF FF FF
 7.282927 1  200             Rx   d 8 C5 04 C4 04 CF 04 47 05
 7.312031 1  100             Rx   d 8 BE 04 8B 0E 10 C8 8B 00
 7.322624 1  CF00400x        Rx   d 8 FF FF 82 F3 25 FF FF FF
 7.322624 1  CF00300x        Rx   d 8 FF 0E 05 FF FF FF FF FF
 7.363905 1  100             Rx   d 8 BE 04 8B 0E 10 C8 8B 00
 7.383609 1  200             Rx   d 8 85 04 B8 04 B4 04 FB 04
 7.384615 1  CF00400x        Rx   d 8 FF FF 82 F3 25 FF FF FF
 7.384615 1  CF00300x        Rx   d 8 FF 0E 05 FF FF FF FF FF
 7.384615 1  18FEF10Bx       Rx   d 8 FF 83 0C FF FF FF FF FF
 7.414599 1  100             Rx   d 8 BE 04 8B 0E 0A C8 8B 00
 7.430351 1  300             Rx   d 4 0C 00 00 00
 7.446540 1  CF00400x        Rx   d 8 FF FF 81 6C 25 FF FF FF
 7.446540 1  CF00300x        Rx   d 8 FF 0D 05 FF FF FF FF FF
 7.465606 1  100             Rx   d 8 AD 04 8B 0D 11 C8 8C 00
 7.484474 1  200             Rx   d 8 E9 04 34 05 DB 04 E9 04
 7.487994 1  18FEF10Bx       Rx   d 8 FF DA 0C FF FF FF FF FF
 7.508804 1  CF00400x        Rx   d 8 FF FF 81 6C 25 FF FF FF
 7.508804 1  CF00300x        Rx   d 8 FF 0D 05 FF FF FF FF FF
 7.510816 1  400             Rx   d 6 00 78 B5 00 00 00
 7.516345 1  100             Rx   d 8 AD 04 8B 0D 12 C8 8C 00
 7.566749 1  100             Rx   d 8 AD 04 8B 0D 0E C8 8C 00
 7.570775 1  CF00400x        Rx   d 8 FF FF 81 6C 25 FF FF FF
 7.570775 1  CF00300x        Rx   d 8 FF 0D 05 FF FF FF FF FF
 7.585276 1  200             Rx   d 8 3E 05 F8 04 AE 04 D6 04
 7.591748 1  18FEF10Bx       Rx   d 8 FF DA 0C FF FF FF FF FF
 7.617438 1  100             Rx   d 8 AD 04 8B 0D 11 C8 8C 00
 7.631768 1  300             Rx   d 4 0C 00 00 00
 7.632931 1  CF00400x        Rx   d 8 FF FF 82 26 25 FF FF FF
 7.632931 1  CF00300x        Rx   d 8 FF 11 06 FF FF FF FF FF
 7.667910 1  100             Rx   d 8 A5 04 8C 11 16 C8 8C 00
 7.685840 1  200             Rx   d 8 43 05 E4 04 27 05 1A 05
 7.695048 1  CF00400x        Rx   d 8 FF FF 82 26 25 FF FF FF
 7.695048 1  CF00300x        Rx   d 8 FF 11 06 FF FF FF FF FF
 7.695556 1  18FEF10Bx       Rx   d 8 FF 26 0D FF FF FF FF FF
 7.695556 1  18FEF200x       Rx   d 8 54 00 11 FF FF FF FF FF
 7.718389 1  100             Rx   d 8 A5 04 8C 11 08 C8 8C 00
 7.756979 1  CF00400x        Rx   d 8 FF FF 82 26 25 FF FF FF
 7.756979 1  CF00300x        Rx   d 8 FF 11 06 FF FF FF FF FF
 7.768821 1  100             Rx   d 8 A5 04 8C 11 0D C8 8C 00
 7.786524 1  200             Rx   d 8 D4 04 48 05 86 05 B4 04
 7.798109 1  18FEF10Bx       Rx   d 8 FF 26 0D FF FF FF FF FF
 7.818508 1  CF00400x        Rx   d 8 FF FF 82 26 25 FF FF FF
 7.818508 1  CF00300x        Rx   d 8 FF 11 06 FF FF FF FF FF
 7.819525 1  100             Rx   d 8 A5 04 8C 11 14 C8 8C 00
 7.832547 1  300             Rx   d 4 0C 00 00 00
 7.870501 1  100             Rx   d 8 99 04 8C 0F 06 C8 8C 00
 7.880064 1  CF00400x        Rx   d 8 FF FF 82 CA 24 FF FF FF
 7.880064 1  CF00300x        Rx   d 8 FF 0F 05 FF FF FF FF FF
 7.887309 1  200             Rx   d 8 56 05 66 05 86 05 75 05
 7.900730 1  18FEF10Bx       Rx   d 8 FF 66 0D FF FF FF FF FF
 7.921015 1  100             Rx   d 8 99 04 8C 0F 12 C8 8C 00
 7.942163 1  CF00400x        Rx   d 8 FF FF 82 CA 24 FF FF FF
 7.942163 1  CF00300x        Rx   d 8 FF 0F 05 FF FF FF FF FF
 7.971763 1  100             Rx   d 8 99 04 8C 0F 0F C8 8C 00
 7.987926 1  200             Rx   d 8 E3 04 3B 05 4F 05 42 05
 8.003943 1  CF00400x        Rx   d 8 FF FF 82 CA 24 FF FF FF
 8.003943 1  CF00300x        Rx   d 8 FF 0F 05 FF FF FF FF FF
 8.003943 1  18FEF10Bx       Rx   d 8 FF 66 0D FF FF FF FF FF
 8.012866 1  400             Rx   d 6 00 78 B5 00 00 00
 8.019873 1  18FECA00x       Rx   d 6 00 FF 00 00 00 00
 8.022982 1  100             Rx   d 8 90 04 8C 10 0E C8 8C 00
 8.033072 1  300             Rx   d 4 0C 00 00 00
 8.065378 1  CF00400x        Rx   d 8 FF FF 82 84 24 FF FF FF
 8.065378 1  CF00300x        Rx   d 8 FF 10 06 FF FF FF FF FF
 8.073586 1  100             Rx   d 8 90 04 8C 10 0A C8 8C 00
 8.088547 1  200             Rx   d 8 4D 05 6D 05 27 05 E2 04
 8.106752 1  18FEEE00x       Rx   d 8 46 32 FF FF FF FF FF FF
 8.106752 1  18FEF10Bx       Rx   d 8 FF 9A 0D FF FF FF FF FF
 8.106752 1  18FEFC17x       Rx   d 8 FF C8 FF FF FF FF FF FF
 8.106752 1  18FEF700x       Rx   d 8 FF FF FF FF 18 01 FF FF
 8.123885 1  100             Rx   d 8 90 04 8C 10 0C C8 8C 00
 8.127915 1  CF00400x        Rx   d 8 FF FF 82 84 24 FF FF FF
 8.127915 1  CF00300x        Rx   d 8 FF 10 06 FF FF FF FF FF
 8.174279 1  100             Rx   d 8 90 04 8C 10 15 C8 8C 00
 8.188921 1  200             Rx   d 8 81 05 C7 05 8A 05 57 05
 8.189432 1  CF00400x        Rx   d 8 FF FF 82 84 24 FF FF FF
 8.189432 1  CF00300x        Rx   d 8 FF 10 06 FF FF FF FF FF
 8.210244 1  18FEF10Bx       Rx   d 8 FF 9A 0D FF FF FF FF FF
 8.210244 1  18FEF200x       Rx   d 8 51 00 10 FF FF FF FF FF
 8.224996 1  100             Rx   d 8 84 04 8D 0D 0B C8 8C 00
 8.233585 1  300             Rx   d 4 0C 00 00 00
 8.251794 1  CF00400x        Rx   d 8 FF FF 81 1E 24 FF FF FF
 8.251794 1  CF00300x        Rx   d 8 FF 0D 05 FF FF FF FF FF
 8.275495 1  100             Rx   d 8 84 04 8D 0D 0C C8 8C 00
 8.289324 1  200             Rx   d 8 77 05 A1 05 0A 05 59 05
 8.313055 1  CF00400x        Rx   d 8 FF FF 81 1E 24 FF FF FF
 8.313055 1  CF00300x        Rx   d 8 FF 0D 05 FF FF FF FF FF
 8.313055 1  18FEF10Bx       Rx   d 8 FF C3 0D FF FF FF FF FF
 8.326222 1  100             Rx   d 8 84 04 8D 0D 12 C8 8C 00
 8.374567 1  CF00400x        Rx   d 8 FF FF 81 1E 24 FF FF FF
 8.374567 1  CF00300x        Rx   d 8 FF 0D 05 FF FF FF FF FF
 8.377150 1  100             Rx   d 8 84 04 8D 0D 0A C8 8C 00
 8.389896 1  200             Rx   d 8 BB 05 C4 05 B4 05 98 05
 8.415916 1  18FEF10Bx       Rx   d 8 FF C3 0D FF FF FF FF FF
 8.427544 1  100             Rx   d 8 79 04 8E 0E 10 C8 8C 00
 8.434293 1  300             Rx   d 4 0C 00 00 00
 8.437028 1  CF00400x        Rx   d 8 FF FF 81 CC 23 FF FF FF
 8.437028 1  CF00300x        Rx   d 8 FF 0E 05 FF FF FF FF FF
 8.478107 1  100             Rx   d 8 79 04 8E 0E 0A C8 8C 00
 8.490311 1  200             Rx   d 8 0E 05 96 05 6D 05 06 05
 8.498586 1  CF00400x        Rx   d 8 FF FF 81 CC 23 FF FF FF
 8.498586 1  CF00300x        Rx   d 8 FF 0E 05 FF FF FF FF FF
 8.513633 1  400             Rx   d 6 00 78 B4 00 00 00
 8.519495 1  18FEF10Bx       Rx   d 8 FF DF 0D FF FF FF FF FF
 8.528854 1  100             Rx   d 8 79 04 8E 0E 0F C8 8C 00
 8.560705 1  CF00400x        Rx   d 8 FF FF 81 CC 23 FF FF FF
 8.560705 1  CF00300x        Rx   d 8 FF 0E 05 FF FF FF FF FF
 8.579595 1  100             Rx   d 8 79 04 8E 0E 0F C8 8C 00
 8.590586 1  200             Rx   d 8 1E 05 48 05 2F 05 24 05
 8.622948 1  CF00400x        Rx   d 8 FF FF 81 63 23 FF FF FF
 8.622948 1  CF00300x        Rx   d 8 FF 0B 04 FF FF FF FF FF
 8.622948 1  18FEF10Bx       Rx   d 8 FF F1 0D FF FF FF FF FF
 8.630633 1  100             Rx   d 8 6C 04 8E 0B 0E C8 8D 00
 8.635215 1  300             Rx   d 4 0C 00 00 00
 8.682618 1  100             Rx   d 8 6C 04 8E 0B 06 C8 8D 00
 8.684183 1  CF00400x        Rx   d 8 FF FF 81 63 23 FF FF FF
 8.684183 1  CF00300x        Rx   d 8 FF 0B 04 FF FF FF FF FF
 8.692313 1  200             Rx   d 8 79 05 62 05 8A 05 A0 05
 8.725724 1  18FEF10Bx       Rx   d 8 FF F1 0D FF FF FF FF FF
 8.726227 1  18FEF200x       Rx   d 8 43 00 0B FF FF FF FF FF
 8.733633 1  100             Rx   d 8 6C 04 8E 0B 0A C8 8D 00
 8.746477 1  CF00400x        Rx   d 8 FF FF 81 63 23 FF FF FF
 8.746477 1  CF00300x        Rx   d 8 FF 0B 04 FF FF FF FF FF
 8.784009 1  100             Rx   d 8 6C 04 8E 0B 09 C8 8D 00
 8.792767 1  200             Rx   d 8 74 05 28 05 9A 05 74 05
 8.808436 1  CF00400x        Rx   d 8 FF FF 81 63 23 FF FF FF
 8.808436 1  CF00300x        Rx   d 8 FF 0B 04 FF FF FF FF FF
 8.829509 1  18FEF10Bx       Rx   d 8 FF FD 0D FF FF FF FF FF
 8.834579 1  100             Rx   d 8 67 04 8E 0F 14 C8 8D 00
 8.836154 1  300             Rx   d 4 0C 00 00 00
 8.871419 1  CF00400x        Rx   d 8 FF FF 82 38 23 FF FF FF
 8.871419 1  CF00300x        Rx   d 8 FF 0F 06 FF FF FF FF FF
 8.885343 1  100             Rx   d 8 67 04 8E 0F 09 C8 8D 00
 8.893602 1  200             Rx   d 8 D5 05 4F 05 A0 05 DF 05
 8.933446 1  CF00400x        Rx   d 8 FF FF 82 38 23 FF FF FF
 8.933446 1  CF00300x        Rx   d 8 FF 0F 06 FF FF FF FF FF
 8.933446 1  18FEF10Bx       Rx   d 8 FF FD 0D FF FF FF FF FF
 8.936528 1  100             Rx   d 8 67 04 8E 0F 08 C8 8D 00
 8.987178 1  100             Rx   d 8 67 04 8E 0F 0B C8 8D 00
 8.994164 1  200             Rx   d 8 27 05 16 05 B4 05 7B 05
 8.995717 1  CF00400x        Rx   d 8 FF FF 82 38 23 FF FF FF
 8.995717 1  CF00300x        Rx   d 8 FF 0F 06 FF FF FF FF FF
 9.014580 1  400             Rx   d 6 00 78 B5 00 00 00
 9.020677 1  18FECA00x       Rx   d 6 00 FF 00 00 00 00
 9.036937 1  18FEF10Bx       Rx   d 8 FF 0A 0E FF FF FF FF FF
 9.036937 1  300             Rx   d 4 0C 00 00 00
 9.038605 1  100             Rx   d 8 68 04 8E 13 14 C8 8D 00
 9.057356 1  CF00400x        Rx   d 8 FF FF 83 43 23 FF FF FF
 9.058365 1  CF00300x        Rx   d 8 FF 13 07 FF FF FF FF FF
 9.089355 1  100             Rx   d 8 68 04 8E 13 0E C8 8D 00
 9.094534 1  200             Rx   d 8 B4 05 E9 05 A5 05 46 05
 9.119816 1  CF00400x        Rx   d 8 FF FF 83 43 23 FF FF FF
 9.120840 1  CF00300x        Rx   d 8 FF 13 07 FF FF FF FF FF
 9.120840 1  18FEEE00x       Rx   d 8 47 33 FF FF FF FF FF FF
 9.120840 1  18FEFC17x       Rx   d 8 FF C8 FF FF FF FF FF FF
 9.121849 1  18FEF700x       Rx   d 8 FF FF FF FF 1A 01 FF FF
 9.140762 1  100             Rx   d 8 68 04 8E 13 12 C8 8D 00
 9.142307 1  18FEF10Bx       Rx   d 8 FF 0A 0E FF FF FF FF FF
 9.183345 1  CF00400x        Rx   d 8 FF FF 83 43 23 FF FF FF
 9.183345 1  CF00300x        Rx   d 8 FF 13 07 FF FF FF FF FF
 9.191451 1  100             Rx   d 8 68 04 8E 13 17 C8 8D 00
 9.195471 1  200             Rx   d 8 BD 05 6D 05 CA 05 BD 05
 9.237697 1  300             Rx   d 4 0C 00 00 00
 9.241739 1  100             Rx   d 8 6A 04 8E 13 0E C8 8D 00
 9.245004 1  CF00400x        Rx   d 8 FF FF 83 4C 23 FF FF FF
 9.245512 1  CF00300x        Rx   d 8 FF 13 07 FF FF FF FF FF
 9.245512 1  18FEF10Bx       Rx   d 8 FF 17 0E FF FF FF FF FF
 9.245512 1  18FEF200x       Rx   d 8 5B 00 13 FF FF FF FF FF
 9.292320 1  100             Rx   d 8 6A 04 8E 13 0B C8 8D 00
 9.295837 1  200             Rx   d 8 2A 05 18 05 30 05 0E 05
 9.307490 1  CF00400x        Rx   d 8 FF FF 83 4C 23 FF FF FF
 9.307490 1  CF00300x        Rx   d 8 FF 13 07 FF FF FF FF FF
 9.343234 1  100             Rx   d 8 6A 04 8E 13 10 C8 8D 00
 9.348947 1  18FEF10Bx       Rx   d 8 FF 17 0E FF FF FF FF FF
 9.369703 1  CF00400x        Rx   d 8 FF FF 83 4C 23 FF FF FF
 9.369703 1  CF00300x        Rx   d 8 FF 13 07 FF FF FF FF FF
 9.394036 1  100             Rx   d 8 6A 04 8E 13 0D C8 8D 00
 9.396658 1  200             Rx   d 8 93 05 A5 05 59 05 76 05
 9.433195 1  CF00400x        Rx   d 8 FF FF 84 84 23 FF FF FF
 9.433195 1  CF00300x        Rx   d 8 FF 16 08 FF FF FF FF FF
 9.438673 1  300             Rx   d 4 0C 00 00 00
 9.444669 1  100             Rx   d 8 71 04 8E 16 0E C8 8E 00
 9.453883 1  18FEF10Bx       Rx   d 8 FF 29 0E FF FF FF FF FF
 9.495120 1  CF00400x        Rx   d 8 FF FF 84 84 23 FF FF FF
 9.495661 1  CF00300x        Rx   d 8 FF 16 08 FF FF FF FF FF
 9.495661 1  100             Rx   d 8 71 04 8E 16 11 C8 8E 00
 9.497176 1  200             Rx   d 8 9E 05 5F 05 59 05 53 05
 9.515407 1  400             Rx   d 6 00 78 B5 00 00 00
 9.546376 1  100             Rx   d 8 71 04 8E 16 13 C8 8E 00
 9.556970 1  CF00400x        Rx   d 8 FF FF 84 84 23 FF FF FF
 9.556970 1  CF00300x        Rx   d 8 FF 16 08 FF FF FF FF FF
 9.558023 1  18FEF10Bx       Rx   d 8 FF 29 0E FF FF FF FF FF
 9.596908 1  100             Rx   d 8 71 04 8E 16 19 C8 8E 00
 9.597954 1  200             Rx   d 8 E5 05 C4 05 57 05 98 05
 9.619063 1  CF00400x        Rx   d 8 FF FF 84 84 23 FF FF FF
 9.619063 1  CF00300x        Rx   d 8 FF 16 08 FF FF FF FF FF
 9.639847 1  300             Rx   d 4 0C 00 00 00
 9.647630 1  100             Rx   d 8 7A 04 8E 18 15 C8 8D 00
 9.660242 1  18FEF10Bx       Rx   d 8 FF 40 0E FF FF FF FF FF
 9.680760 1  CF00400x        Rx   d 8 FF FF 85 D1 23 FF FF FF
 9.680760 1  CF00300x        Rx   d 8 FF 18 09 FF FF FF FF FF
 9.698404 1  200             Rx   d 8 94 05 78 05 CC 05 4E 05
 9.698404 1  100             Rx   d 8 7A 04 8E 18 1C C8 8D 00
 9.742334 1  CF00400x        Rx   d 8 FF FF 85 D1 23 FF FF FF
 9.742334 1  CF00300x        Rx   d 8 FF 18 09 FF FF FF FF FF
 9.748986 1  100             Rx   d 8 7A 04 8E 18 1A C8 8D 00
 9.763653 1  18FEF10Bx       Rx   d 8 FF 40 0E FF FF FF FF FF
 9.763653 1  18FEF200x       Rx   d 8 6C 00 18 FF FF FF FF FF
 9.799196 1  200             Rx   d 8 85 05 9B 05 DC 05 6C 05
 9.800251 1  100             Rx   d 8 7A 04 8E 18 1C C8 8D 00
 9.806010 1  CF00400x        Rx   d 8 FF FF 85 D1 23 FF FF FF
 9.806010 1  CF00300x        Rx   d 8 FF 18 09 FF FF FF FF FF
 9.840686 1  300             Rx   d 4 0C 00 00 00
 9.850528 1  100             Rx   d 8 7D 04 8E 15 15 C8 8D 00
 9.867792 1  CF00400x        Rx   d 8 FF FF 84 EB 23 FF FF FF
 9.867792 1  CF00300x        Rx   d 8 FF 15 08 FF FF FF FF FF
 9.867792 1  18FEF10Bx       Rx   d 8 FF 5A 0E FF FF FF FF FF
 9.899844 1  200             Rx   d 8 81 05 5F 05 FC 05 E9 05
 9.900888 1  100             Rx   d 8 7D 04 8E 15 0C C8 8D 00
 9.930026 1  CF00400x        Rx   d 8 FF FF 84 EB 23 FF FF FF
 9.930026 1  CF00300x        Rx   d 8 FF 15 08 FF FF FF FF FF
 9.951153 1  100             Rx   d 8 7D 04 8E 15 18 C8 8D 00
 9.970633 1  18FEF10Bx       Rx   d 8 FF 5A 0E FF FF FF FF FF
 9.991325 1  CF00400x        Rx   d 8 FF FF 84 EB 23 FF FF FF
 9.991325 1  CF00300x        Rx   d 8 FF 15 08 FF FF FF FF FF
 10.000436 1  200             Rx   d 8 A8 05 DF 05 77 05 48 05
 10.002345 1  100             Rx   d 8 7D 04 8E 15 19 C8 8D 00
 10.016332 1  400             Rx   d 6 00 78 B6 00 00 00
 10.021199 1  18FECA00x       Rx   d 6 00 FF 00 00 00 00
 10.041804 1  300             Rx   d 4 0C 00 00 00
 10.052845 1  100             Rx   d 8 81 04 8F 15 14 C8 8D 00
 10.053353 1  CF00400x        Rx   d 8 FF FF 84 07 24 FF FF FF
 10.053353 1  CF00300x        Rx   d 8 FF 15 08 FF FF FF FF FF
 10.073746 1  18FEF10Bx       Rx   d 8 FF 73 0E FF FF FF FF FF
 10.101054 1  200             Rx   d 8 B8 05 3B 05 BD 05 F9 05
 10.103206 1  100             Rx   d 8 81 04 8F 15 12 C8 8D 00
 10.114365 1  CF00400x        Rx   d 8 FF FF 84 07 24 FF FF FF
 10.114365 1  CF00300x        Rx   d 8 FF 15 08 FF FF FF FF FF
 10.135282 1  18FEEE00x       Rx   d 8 48 34 FF FF FF FF FF FF
 10.135282 1  18FEFC17x       Rx   d 8 FF C8 FF FF FF FF FF FF
 10.135282 1  18FEF700x       Rx   d 8 FF FF FF FF 1B 01 FF FF
 10.154033 1  100             Rx   d 8 81 04 8F 15 1A C8 8D 00
 10.176552 1  CF00400x        Rx   d 8 FF FF 84 07 24 FF FF FF
 10.176552 1  CF00300x        Rx   d 8 FF 15 08 FF FF FF FF FF
 10.176552 1  18FEF10Bx       Rx   d 8 FF 73 0E FF FF FF FF FF
 10.201917 1  200             Rx   d 8 7D 05 81 05 C8 05 5B 05
 10.204450 1  100             Rx   d 8 81 04 8F 15 14 C8 8D 00
 10.238356 1  CF00400x        Rx   d 8 FF FF 80 66 23 FF FF FF
 10.238356 1  CF00300x        Rx   d 8 FF 08 03 FF FF FF FF FF
 10.242857 1  300             Rx   d 4 0C 00 00 00
 10.255045 1  100             Rx   d 8 6D 04 8F 08 00 C8 8D 00
 10.279471 1  18FEF10Bx       Rx   d 8 FF 7B 0E FF FF FF FF FF
 10.279994 1  18FEF200x       Rx   d 8 37 00 08 FF FF FF FF FF
 10.300321 1  CF00400x        Rx   d 8 FF FF 80 66 23 FF FF FF
 10.300321 1  CF00300x        Rx   d 8 FF 08 03 FF FF FF FF FF
 10.302983 1  200             Rx   d 8 58 05 33 05 D4 05 E1 05
 10.305606 1  100             Rx   d 8 6D 04 8F 08 09 C8 8D 00
 10.355876 1  100             Rx   d 8 6D 04 8F 08 00 C8 8D 00
 10.361711 1  CF00400x        Rx   d 8 FF FF 80 66 23 FF FF FF
 10.361711 1  CF00300x        Rx   d 8 FF 08 03 FF FF FF FF FF
 10.382250 1  18FEF10Bx       Rx   d 8 FF 7B 0E FF FF FF FF FF
 10.403780 1  200             Rx   d 8 A2 05 08 06 51 05 75 05
 10.406652 1  100             Rx   d 8 6D 04 8F 08 04 C8 8D 00
 10.423787 1  CF00400x        Rx   d 8 FF FF 80 66 23 FF FF FF
 10.423787 1  CF00300x        Rx   d 8 FF 08 03 FF FF FF FF FF
 10.443391 1  300             Rx   d 4 0C 00 00 00
 10.457302 1  100             Rx   d 8 55 04 90 04 06 C8 8D 00
 10.485544 1  CF00400x        Rx   d 8 FF FF 7E A7 22 FF FF FF
 10.485544 1  CF00300x        Rx   d 8 FF 04 02 FF FF FF FF FF
 10.485544 1  18FEF10Bx       Rx   d 8 FF 71 0E FF FF FF FF FF
 10.505044 1  200             Rx   d 8 EF 05 10 06 E8 05 3C 05
 10.508088 1  100             Rx   d 8 55 04 90 04 00 C8 8D 00
 10.517104 1  400             Rx   d 6 00 78 B6 00 00 00
 10.547058 1  CF00400x        Rx   d 8 FF FF 7E A7 22 FF FF FF
 10.547058 1  CF00300x        Rx   d 8 FF 04 02 FF FF FF FF FF
 10.558594 1  100             Rx   d 8 55 04 90 04 01 C8 8D 00
 10.588301 1  18FEF10Bx       Rx   d 8 FF 71 0E FF FF FF FF FF
 10.605723 1  200             Rx   d 8 F7 05 14 06 ED 05 2E 05
 10.609401 1  100             Rx   d 8 55 04 90 04 04 C8 8D 00
 10.609401 1  CF00400x        Rx   d 8 FF FF 7E A7 22 FF FF FF
 10.609401 1  CF00300x        Rx   d 8 FF 04 02 FF FF FF FF FF
 10.644043 1  300             Rx   d 4 0C 00 00 00
 10.659776 1  100             Rx   d 8 3D 04 90 03 09 C8 8D 00
 10.671043 1  CF00400x        Rx   d 8 FF FF 7E EC 21 FF FF FF
 10.671043 1  CF00300x        Rx   d 8 FF 03 01 FF FF FF FF FF
 10.691773 1  18FEF10Bx       Rx   d 8 FF 57 0E FF FF FF FF FF
 10.706541 1  200             Rx   d 8 FA 05 7B 05 ED 05 C6 05
 10.710593 1  100             Rx   d 8 3D 04 90 03 07 C8 8D 00
 10.733024 1  CF00400x        Rx   d 8 FF FF 7E EC 21 FF FF FF
 10.733024 1  CF00300x        Rx   d 8 FF 03 01 FF FF FF FF FF
 10.761753 1  100             Rx   d 8 3D 04 90 03 00 C8 8D 00
 10.795305 1  CF00400x        Rx   d 8 FF FF 7E EC 21 FF FF FF
 10.795305 1  CF00300x        Rx   d 8 FF 03 01 FF FF FF FF FF
 10.795305 1  18FEF10Bx       Rx   d 8 FF 57 0E FF FF FF FF FF
 10.795823 1  18FEF200x       Rx   d 8 29 00 03 FF FF FF FF FF
 10.807482 1  200             Rx   d 8 6D 05 E7 05 87 05 98 05
 10.812780 1  100             Rx   d 8 3D 04 90 03 0A C8 8D 00
 10.844388 1  300             Rx   d 4 0C 00 00 00
 10.857156 1  CF00400x        Rx   d 8 FF FF 7F 77 21 FF FF FF
 10.857156 1  CF00300x        Rx   d 8 FF 07 03 FF FF FF FF FF
 10.863374 1  100             Rx   d 8 2F 04 90 07 0A C8 8D 00
 10.898384 1  18FEF10Bx       Rx   d 8 FF 33 0E FF FF FF FF FF
 10.908154 1  200             Rx   d 8 89 05 B5 05 CC 05 5F 05
 10.913767 1  100             Rx   d 8 2F 04 90 07 0D C8 8D 00
 10.918865 1  CF00400x        Rx   d 8 FF FF 7F 77 21 FF FF FF
 10.918865 1  CF00300x        Rx   d 8 FF 07 03 FF FF FF FF FF
 10.964487 1  100             Rx   d 8 2F 04 90 07 08 C8 8D 00
 10.980506 1  CF00400x        Rx   d 8 FF FF 7F 77 21 FF FF FF
 10.980506 1  CF00300x        Rx   d 8 FF 07 03 FF FF FF FF FF
 11.000998 1  18FEF10Bx       Rx   d 8 FF 33 0E FF FF FF FF FF
 11.009389 1  200             Rx   d 8 D7 05 46 05 47 05 9B 05
 11.015340 1  100             Rx   d 8 2F 04 90 07 06 C8 8D 00
 11.017906 1  400             Rx   d 6 00 78 B6 00 00 00
 11.021887 1  18FECA00x       Rx   d 6 00 FF 00 00 00 00
 11.042638 1  CF00400x        Rx   d 8 FF FF 80 30 21 FF FF FF
 11.042638 1  CF00300x        Rx   d 8 FF 0A 04 FF FF FF FF FF
 11.045666 1  300             Rx   d 4 0C 00 00 00
 11.066253 1  100             Rx   d 8 26 04 91 0A 0D C8 8D 00
 11.103816 1  CF00400x        Rx   d 8 FF FF 80 30 21 FF FF FF
 11.103816 1  CF00300x        Rx   d 8 FF 0A 04 FF FF FF FF FF
 11.103816 1  18FEF10Bx       Rx   d 8 FF 0D 0E FF FF FF FF FF
 11.110017 1  200             Rx   d 8 22 05 A1 05 7F 05 4A 05
 11.116965 1  100             Rx   d 8 26 04 91 0A 0C C8 8D 00
 11.144643 1  18FEEE00x       Rx   d 8 49 35 FF FF FF FF FF FF
 11.144643 1  18FEFC17x       Rx   d 8 FF C8 FF FF FF FF FF FF
 11.144643 1  18FEF700x       Rx   d 8 FF FF FF FF 1A 01 FF FF
 11.165342 1  CF00400x        Rx   d 8 FF FF 80 30 21 FF FF FF
 11.165342 1  CF00300x        Rx   d 8 FF 0A 04 FF FF FF FF FF
 11.167420 1  100             Rx   d 8 26 04 91 0A 06 C8 8D 00
 11.206340 1  18FEF10Bx       Rx   d 8 FF 0D 0E FF FF FF FF FF
 11.210874 1  200             Rx   d 8 2B 05 21 05 8D 05 9A 05
 11.217992 1  100             Rx   d 8 26 04 91 0A 07 C8 8D 00
 11.227492 1  CF00400x        Rx   d 8 FF FF 80 30 21 FF FF FF
 11.227492 1  CF00300x        Rx   d 8 FF 0A 04 FF FF FF FF FF
 11.245972 1  300             Rx   d 4 0C 00 00 00
 11.268387 1  100             Rx   d 8 1F 04 92 0A 02 C8 8D 00
 11.289001 1  CF00400x        Rx   d 8 FF FF 80 F7 20 FF FF FF
 11.289001 1  CF00300x        Rx   d 8 FF 0A 04 FF FF FF FF FF
 11.309827 1  18FEF10Bx       Rx   d 8 FF E1 0D FF FF FF FF FF
 11.309827 1  18FEF200x       Rx   d 8 3F 00 0A FF FF FF FF FF
 11.311344 1  200             Rx   d 8 CF 05 AE 05 79 05 43 05
 11.320946 1  100             Rx   d 8 1F 04 92 0A 10 C8 8D 00
 11.352100 1  CF00400x        Rx   d 8 FF FF 80 F7 20 FF FF FF
 11.352100 1  CF00300x        Rx   d 8 FF 0A 04 FF FF FF FF FF
 11.371718 1  100             Rx   d 8 1F 04 92 0A 10 C8 8D 00
 11.412354 1  200             Rx   d 8 5B 05 DC 05 98 05 7F 05
 11.413410 1  CF00400x        Rx   d 8 FF FF 80 F7 20 FF FF FF
 11.413410 1  CF00300x        Rx   d 8 FF 0A 04 FF FF FF FF FF
 11.413410 1  18FEF10Bx       Rx   d 8 FF E1 0D FF FF FF FF FF
 11.422553 1  100             Rx   d 8 1F 04 92 0A 0E C8 8D 00
 11.446473 1  300             Rx   d 4 0C 00 00 00
 11.472914 1  100             Rx   d 8 14 04 92 08 01 C8 8D 00
 11.475427 1  CF00400x        Rx   d 8 FF FF 80 A4 20 FF FF FF
 11.475427 1  CF00300x        Rx   d 8 FF 08 03 FF FF FF FF FF
 11.513140 1  200             Rx   d 8 1F 05 26 05 86 05 E2 04
 11.517209 1  18FEF10Bx       Rx   d 8 FF B1 0D FF FF FF FF FF
 11.518740 1  400             Rx   d 6 00 78 B5 00 00 00
 11.523761 1  100             Rx   d 8 14 04 92 08 07 C8 8D 00
 11.537735 1  CF00400x        Rx   d 8 FF FF 80 A4 20 FF FF FF
 11.537735 1  CF00300x        Rx   d 8 FF 08 03 FF FF FF FF FF
 11.574588 1  100             Rx   d 8 14 04 92 08 07 C8 8D 00
 11.598955 1  CF00400x        Rx   d 8 FF FF 80 A4 20 FF FF FF
 11.598955 1  CF00300x        Rx   d 8 FF 08 03 FF FF FF FF FF
 11.613802 1  200             Rx   d 8 F9 04 07 05 11 05 93 05
 11.619817 1  18FEF10Bx       Rx   d 8 FF B1 0D FF FF FF FF FF
 11.625687 1  100             Rx   d 8 14 04 92 08 03 C8 8D 00
 11.646996 1  300             Rx   d 4 0C 00 00 00
 11.661032 1  CF00400x        Rx   d 8 FF FF 80 6C 20 FF FF FF
 11.661032 1  CF00300x        Rx   d 8 FF 09 03 FF FF FF FF FF
 11.675994 1  100             Rx   d 8 0E 04 93 09 05 C8 8D 00
 11.714754 1  200             Rx   d 8 36 05 7E 05 39 05 AF 05
 11.722759 1  CF00400x        Rx   d 8 FF FF 80 6C 20 FF FF FF
 11.722759 1  CF00300x        Rx   d 8 FF 09 03 FF FF FF FF FF
 11.722759 1  18FEF10Bx       Rx   d 8 FF 80 0D FF FF FF FF FF
 11.726664 1  100             Rx   d 8 0E 04 93 09 0B C8 8D 00
 11.776995 1  100             Rx   d 8 0E 04 93 09 06 C8 8D 00
 11.784576 1  CF00400x        Rx   d 8 FF FF 80 6C 20 FF FF FF
 11.785600 1  CF00300x        Rx   d 8 FF 09 03 FF FF FF FF FF
 11.815759 1  200             Rx   d 8 35 05 A1 05 24 05 85 05
 11.826619 1  18FEF10Bx       Rx   d 8 FF 80 0D FF FF FF FF FF
 11.827125 1  18FEF200x       Rx   d 8 3C 00 09 FF FF FF FF FF
 11.827630 1  100             Rx   d 8 0E 04 93 09 0B C8 8D 00
 11.847629 1  CF00400x        Rx   d 8 FF FF 80 34 20 FF FF FF
 11.847629 1  CF00300x        Rx   d 8 FF 09 03 FF FF FF FF FF
 11.848140 1  300             Rx   d 4 0C 00 00 00
 11.878746 1  100             Rx   d 8 07 04 92 09 02 C8 8D 00
 11.908858 1  CF00400x        Rx   d 8 FF FF 80 34 20 FF FF FF
 11.908858 1  CF00300x        Rx   d 8 FF 09 03 FF FF FF FF FF
 11.916423 1  200             Rx   d 8 58 05 2D 05 34 05 29 05
 11.929271 1  100             Rx   d 8 07 04 92 09 01 C8 8D 00
 11.929786 1  18FEF10Bx       Rx   d 8 FF 4D 0D FF FF FF FF FF
 11.970920 1  CF00400x        Rx   d 8 FF FF 80 34 20 FF FF FF
 11.970920 1  CF00300x        Rx   d 8 FF 09 03 FF FF FF FF FF
 11.979636 1  100             Rx   d 8 07 04 92 09 0B C8 8D 00
 12.017501 1  200             Rx   d 8 76 05 99 05 F1 04 3D 05
 12.019537 1  400             Rx   d 6 00 78 B5 00 00 00
 12.022737 1  18FECA00x       Rx   d 6 00 FF 00 00 00 00
 12.030262 1  100             Rx   d 8 05 04 92 0C 07 C8 8D 00
 12.032769 1  CF00400x        Rx   d 8 FF FF 81 2B 20 FF FF FF
 12.032769 1  CF00300x        Rx   d 8 FF 0C 04 FF FF FF FF FF
 12.032769 1  18FEF10Bx       Rx   d 8 FF 1C 0D FF FF FF FF FF
 12.048842 1  300             Rx   d 4 0C 00 00 00
 12.080776 1  100             Rx   d 8 05 04 92 0C 0D C8 8D 00
 12.094805 1  CF00400x        Rx   d 8 FF FF 81 2B 20 FF FF FF
 12.094805 1  CF00300x        Rx   d 8 FF 0C 04 FF FF FF FF FF
 12.118332 1  200             Rx   d 8 CD 04 3E 05 61 05 3E 05
 12.131354 1  100             Rx   d 8 05 04 92 0C 09 C8 8D 00
 12.135863 1  18FEF10Bx       Rx   d 8 FF 1C 0D FF FF FF FF FF
 12.156560 1  CF00400x        Rx   d 8 FF FF 81 2B 20 FF FF FF
 12.156560 1  CF00300x        Rx   d 8 FF 0C 04 FF FF FF FF FF
 12.156560 1  18FEEE00x       Rx   d 8 49 35 FF FF FF FF FF FF
 12.156560 1  18FEFC17x       Rx   d 8 FF C8 FF FF FF FF FF FF
 12.156560 1  18FEF700x       Rx   d 8 FF FF FF FF 1A 01 FF FF
 12.182160 1  100             Rx   d 8 05 04 92 0C 06 C8 8D 00
 12.218162 1  CF00400x        Rx   d 8 FF FF 81 2B 20 FF FF FF
 12.218162 1  CF00300x        Rx   d 8 FF 0C 04 FF FF FF FF FF
 12.218667 1  200             Rx   d 8 11 05 44 05 ED 04 29 05
 12.233098 1  100             Rx   d 8 05 04 93 0C 0D C8 8D 00
 12.238858 1  18FEF10Bx       Rx   d 8 FF EE 0C FF FF FF FF FF
 12.249405 1  300             Rx   d 4 0C 00 00 00
 12.280034 1  CF00400x        Rx   d 8 FF FF 81 29 20 FF FF FF
 12.280034 1  CF00300x        Rx   d 8 FF 0C 04 FF FF FF FF FF
 12.283380 1  100             Rx   d 8 05 04 93 0C 0B C8 8D 00
 12.319703 1  200             Rx   d 8 46 05 6F 05 37 05 0D 05
 12.334058 1  100             Rx   d 8 05 04 93 0C 0B C8 8D 00
 12.342478 1  CF00400x        Rx   d 8 FF FF 81 29 20 FF FF FF
 12.342478 1  CF00300x        Rx   d 8 FF 0C 04 FF FF FF FF FF
 12.342478 1  18FEF10Bx       Rx   d 8 FF EE 0C FF FF FF FF FF
 12.342478 1  18FEF200x       Rx   d 8 46 00 0C FF FF FF FF FF
 12.384802 1  100             Rx   d 8 05 04 93 0C 0E C8 8D 00
 12.404021 1  CF00400x        Rx   d 8 FF FF 81 29 20 FF FF FF
 12.404021 1  CF00300x        Rx   d 8 FF 0C 04 FF FF FF FF FF
 12.420646 1  200             Rx   d 8 5B 05 54 05 D4 04 1C 05
 12.435336 1  100             Rx   d 8 07 04 93 0E 0B C8 8D 00
 12.444902 1  18FEF10Bx       Rx   d 8 FF C3 0C FF FF FF FF FF
 12.449965 1  300             Rx   d 4 0C 00 00 00
 12.465490 1  CF00400x        Rx   d 8 FF FF 81 35 20 FF FF FF
 12.465490 1  CF00300x        Rx   d 8 FF 0E 05 FF FF FF FF FF
 12.485862 1  100             Rx   d 8 07 04 93 0E 09 C8 8D 00
 12.520244 1  400             Rx   d 6 00 79 B6 00 00 00
 12.521806 1  200             Rx   d 8 1F 05 4B 05 F7 04 3F 05
 12.527319 1  CF00400x        Rx   d 8 FF FF 81 35 20 FF FF FF
 12.527319 1  CF00300x        Rx   d 8 FF 0E 05 FF FF FF FF FF
 12.536841 1  100             Rx   d 8 07 04 93 0E 11 C8 8D 00
 12.548844 1  18FEF10Bx       Rx   d 8 FF C3 0C FF FF FF FF FF
 12.587284 1  100             Rx   d 8 07 04 93 0E 14 C8 8D 00
 12.589936 1  CF00400x        Rx   d 8 FF FF 81 35 20 FF FF FF
 12.589936 1  CF00300x        Rx   d 8 FF 0E 05 FF FF FF FF FF
 12.622586 1  200             Rx   d 8 54 05 BF 04 FC 04 E1 04
 12.638467 1  100             Rx   d 8 0A 04 93 0F 14 C8 8D 00
 12.650473 1  300             Rx   d 4 0C 00 00 00
 12.651736 1  CF00400x        Rx   d 8 FF FF 82 53 20 FF FF FF
 12.651736 1  CF00300x        Rx   d 8 FF 0F 05 FF FF FF FF FF
 12.652245 1  18FEF10Bx       Rx   d 8 FF 9F 0C FF FF FF FF FF
 12.689414 1  100             Rx   d 8 0A 04 93 0F 0D C8 8D 00
 12.713292 1  CF00400x        Rx   d 8 FF FF 82 53 20 FF FF FF
 12.713795 1  CF00300x        Rx   d 8 FF 0F 05 FF FF FF FF FF
 12.723340 1  200             Rx   d 8 0F 05 F8 04 B5 04 C5 04
 12.740132 1  100             Rx   d 8 0A 04 93 0F 0A C8 8D 00
 12.755172 1  18FEF10Bx       Rx   d 8 FF 9F 0C FF FF FF FF FF
 12.776335 1  CF00400x        Rx   d 8 FF FF 82 53 20 FF FF FF
 12.777340 1  CF00300x        Rx   d 8 FF 0F 05 FF FF FF FF FF
 12.790848 1  100             Rx   d 8 0A 04 93 0F 12 C8 8D 00
 12.824024 1  200             Rx   d 8 28 05 95 04 AD 04 CF 04
 12.838603 1  CF00400x        Rx   d 8 FF FF 81 42 20 FF FF FF
 12.839092 1  CF00300x        Rx   d 8 FF 0C 04 FF FF FF FF FF
 12.842100 1  100             Rx   d 8 08 04 94 0C 03 C8 8D 00
 12.851149 1  300             Rx   d 4 0C 00 00 00
 12.859471 1  18FEF10Bx       Rx   d 8 FF 7B 0C FF FF FF FF FF
 12.859471 1  18FEF200x       Rx   d 8 44 00 0C FF FF FF FF FF
 12.893795 1  100             Rx   d 8 08 04 94 0C 0F C8 8D 00
 12.901362 1  CF00400x        Rx   d 8 FF FF 81 42 20 FF FF FF
 12.901362 1  CF00300x        Rx   d 8 FF 0C 04 FF FF FF FF FF
 12.924590 1  200             Rx   d 8 8E 04 7D 04 2E 05 6E 04
 12.944558 1  100             Rx   d 8 08 04 94 0C 08 C8 8D 00
 12.963031 1  CF00400x        Rx   d 8 FF FF 81 42 20 FF FF FF
 12.963031 1  CF00300x        Rx   d 8 FF 0C 04 FF FF FF FF FF
 12.963031 1  18FEF10Bx       Rx   d 8 FF 7B 0C FF FF FF FF FF
 12.995408 1  100             Rx   d 8 08 04 94 0C 0B C8 8D 00
 13.021070 1  400             Rx   d 6 00 79 B5 00 00 00
 13.023082 1  18FECA00x       Rx   d 6 00 FF 00 00 00 00
 13.024732 1  CF00400x        Rx   d 8 FF FF 81 42 20 FF FF FF
 13.024732 1  CF00300x        Rx   d 8 FF 0C 04 FF FF FF FF FF
 13.025774 1  200             Rx   d 8 F5 04 58 05 F8 04 40 05
 13.046393 1  100             Rx   d 8 04 04 94 0B 0F C8 8D 00
 13.052073 1  300             Rx   d 4 0C 00 00 00
 13.066479 1  18FEF10Bx       Rx   d 8 FF 57 0C FF FF FF FF FF
 13.087713 1  CF00400x        Rx   d 8 FF FF 80 23 20 FF FF FF
 13.088780 1  CF00300x        Rx   d 8 FF 0B 04 FF FF FF FF FF
 13.097088 1  100             Rx   d 8 04 04 94 0B 03 C8 8D 00
 13.126768 1  200             Rx   d 8 D8 04 61 04 CB 04 8F 04
 13.147914 1  100             Rx   d 8 04 04 94 0B 04 C8 8D 00
 13.150443 1  CF00400x        Rx   d 8 FF FF 80 23 20 FF FF FF
 13.150443 1  CF00300x        Rx   d 8 FF 0B 04 FF FF FF FF FF
 13.171683 1  18FEEE00x       Rx   d 8 4A 36 FF FF FF FF FF FF
 13.171683 1  18FEF10Bx       Rx   d 8 FF 57 0C FF FF FF FF FF
 13.171683 1  18FEFC17x       Rx   d 8 FF C8 FF FF FF FF FF FF
 13.171683 1  18FEF700x       Rx   d 8 FF FF FF FF 19 01 FF FF
 13.198529 1  100             Rx   d 8 04 04 94 0B 0B C8 8D 00
 13.213105 1  CF00400x        Rx   d 8 FF FF 80 23 20 FF FF FF
 13.213105 1  CF00300x        Rx   d 8 FF 0B 04 FF FF FF FF FF
 13.227696 1  200             Rx   d 8 DD 04 C4 04 86 04 C7 04
 13.250269 1  100             Rx   d 8 FB 03 94 07 07 C8 8D 00
 13.252594 1  300             Rx   d 4 0C 00 00 00
 13.274925 1  CF00400x        Rx   d 8 FF FF 7F D7 1F FF FF FF
 13.275477 1  CF00300x        Rx   d 8 FF 07 03 FF FF FF FF FF
 13.275477 1  18FEF10Bx       Rx   d 8 FF 2E 0C FF FF FF FF FF
 13.301037 1  100             Rx   d 8 FB 03 94 07 00 C8 8D 00
 13.328426 1  200             Rx   d 8 93 04 BC 04 CD 04 63 04
 13.336801 1  CF00400x        Rx   d 8 FF FF 7F D7 1F FF FF FF
 13.336801 1  CF00300x        Rx   d 8 FF 07 03 FF FF FF FF FF
 13.351503 1  100             Rx   d 8 FB 03 94 07 09 C8 8D 00
 13.378038 1  18FEF10Bx       Rx   d 8 FF 2E 0C FF FF FF FF FF
 13.378038 1  18FEF200x       Rx   d 8 35 00 07 FF FF FF FF FF
 13.398687 1  CF00400x        Rx   d 8 FF FF 7F D7 1F FF FF FF
 13.398687 1  CF00300x        Rx   d 8 FF 07 03 FF FF FF FF FF
 13.402229 1  100             Rx   d 8 FB 03 94 07 09 C8 8D 00
 13.429377 1  200             Rx   d 8 9A 04 39 05 02 05 DA 04
 13.456704 1  300             Rx   d 4 0C 00 00 00
 13.457161 1  100             Rx   d 8 F3 03 94 08 06 C8 8D 00
 13.460204 1  CF00400x        Rx   d 8 FF FF 80 9A 1F FF FF FF
 13.460204 1  CF00300x        Rx   d 8 FF 08 03 FF FF FF FF FF
 13.480888 1  18FEF10Bx       Rx   d 8 FF 00 0C FF FF FF FF FF
 13.507737 1  100             Rx   d 8 F3 03 94 08 0B C8 8D 00
 13.521711 1  400             Rx   d 6 00 79 B5 00 00 00
 13.522520 1  CF00400x        Rx   d 8 FF FF 80 9A 1F FF FF FF
 13.522520 1  CF00300x        Rx   d 8 FF 08 03 FF FF FF FF FF
 13.530135 1  200             Rx   d 8 7C 04 BB 04 80 04 F5 04
 13.558549 1  100             Rx   d 8 F3 03 94 08 0C C8 8D 00
 13.583900 1  CF00400x        Rx   d 8 FF FF 80 9A 1F FF FF FF
 13.583900 1  CF00300x        Rx   d 8 FF 08 03 FF FF FF FF FF
 13.583900 1  18FEF10Bx       Rx   d 8 FF 00 0C FF FF FF FF FF
 13.609614 1  100             Rx   d 8 F3 03 94 08 06 C8 8D 00
 13.631141 1  200             Rx   d 8 7F 04 58 04 13 05 15 05
 13.646381 1  CF00400x        Rx   d 8 FF FF 81 9A 1F FF FF FF
 13.646381 1  CF00300x        Rx   d 8 FF 0C 04 FF FF FF FF FF
 13.657419 1  300             Rx   d 4 0C 00 00 00
 13.660423 1  100             Rx   d 8 F3 03 95 0C 0C C8 8D 00
 13.688367 1  18FEF10Bx       Rx   d 8 FF D7 0B FF FF FF FF FF
 13.709522 1  CF00400x        Rx   d 8 FF FF 81 9A 1F FF FF FF
 13.709522 1  CF00300x        Rx   d 8 FF 0C 04 FF FF FF FF FF
 13.711149 1  100             Rx   d 8 F3 03 95 0C 04 C8 8D 00
 13.732257 1  200             Rx   d 8 01 05 8C 04 C7 04 48 04
 13.761876 1  100             Rx   d 8 F3 03 95 0C 08 C8 8D 00
 13.771077 1  CF00400x        Rx   d 8 FF FF 81 9A 1F FF FF FF
 13.771077 1  CF00300x        Rx   d 8 FF 0C 04 FF FF FF FF FF
 13.791860 1  18FEF10Bx       Rx   d 8 FF D7 0B FF FF FF FF FF
 13.812548 1  100             Rx   d 8 F3 03 95 0C 04 C8 8D 00
 13.832882 1  200             Rx   d 8 A5 04 46 04 80 04 4B 04
 13.832882 1  CF00400x        Rx   d 8 FF FF 81 9A 1F FF FF FF
 13.832882 1  CF00300x        Rx   d 8 FF 0C 04 FF FF FF FF FF
 13.858417 1  300             Rx   d 4 0C 00 00 00
 13.863093 1  100             Rx   d 8 F3 03 95 0B 0E C8 8D 00
 13.894518 1  CF00400x        Rx   d 8 FF FF 81 94 1F FF FF FF
 13.895047 1  CF00300x        Rx   d 8 FF 0B 04 FF FF FF FF FF
 13.895047 1  18FEF10Bx       Rx   d 8 FF B1 0B FF FF FF FF FF
 13.895047 1  18FEF200x       Rx   d 8 42 00 0B FF FF FF FF FF
 13.913605 1  100             Rx   d 8 F3 03 95 0B 11 C8 8D 00
 13.933454 1  200             Rx   d 8 83 04 DF 04 7F 04 84 04
 13.956853 1  CF00400x        Rx   d 8 FF FF 81 94 1F FF FF FF
 13.956853 1  CF00300x        Rx   d 8 FF 0B 04 FF FF FF FF FF
 13.964651 1  100             Rx   d 8 F3 03 95 0B 0C C8 8D 00
 13.998019 1  18FEF10Bx       Rx   d 8 FF B1 0B FF FF FF FF FF
 14.015469 1  100             Rx   d 8 F3 03 95 0B 07 C8 8D 00
 14.018634 1  CF00400x        Rx   d 8 FF FF 81 94 1F FF FF FF
 14.018634 1  CF00300x        Rx   d 8 FF 0B 04 FF FF FF FF FF
 14.022989 1  400             Rx   d 6 00 79 B5 00 00 00
 14.023549 1  18FECA00x       Rx   d 6 00 FF 00 00 00 00
 14.034399 1  200             Rx   d 8 2D 04 79 04 CF 04 33 04
 14.059427 1  300             Rx   d 4 0C 00 00 00
 14.066423 1  100             Rx   d 8 F1 03 96 0B 11 C8 8D 00
 14.081014 1  CF00400x        Rx   d 8 FF FF 80 89 1F FF FF FF
 14.081014 1  CF00300x        Rx   d 8 FF 0B 04 FF FF FF FF FF
 14.102387 1  18FEF10Bx       Rx   d 8 FF 8A 0B FF FF FF FF FF
 14.117242 1  100             Rx   d 8 F1 03 96 0B 0E C8 8D 00
 14.134959 1  200             Rx   d 8 D5 04 40 04 3C 04 59 04
 14.143046 1  CF00400x        Rx   d 8 FF FF 80 89 1F FF FF FF
 14.144224 1  CF00300x        Rx   d 8 FF 0B 04 FF FF FF FF FF
 14.167800 1  100             Rx   d 8 F1 03 96 0B 04 C8 8D 00
 14.185216 1  18FEEE00x       Rx   d 8 4B 37 FF FF FF FF FF FF
 14.185216 1  18FEFC17x       Rx   d 8 FF C8 FF FF FF FF FF FF
 14.185216 1  18FEF700x       Rx   d 8 FF FF FF FF 1A 01 FF FF
 14.206154 1  CF00400x        Rx   d 8 FF FF 80 89 1F FF FF FF
 14.206843 1  CF00300x        Rx   d 8 FF 0B 04 FF FF FF FF FF
 14.206843 1  18FEF10Bx       Rx   d 8 FF 8A 0B FF FF FF FF FF
 14.218381 1  100             Rx   d 8 F1 03 96 0B 0A C8 8D 00
 14.235660 1  200             Rx   d 8 20 04 DB 04 4C 04 C8 04
 14.260233 1  300             Rx   d 4 0C 00 00 00
 14.269155 1  CF00400x        Rx   d 8 FF FF 81 8F 1F FF FF FF
 14.269155 1  CF00300x        Rx   d 8 FF 0C 04 FF FF FF FF FF
 14.269675 1  100             Rx   d 8 F2 03 97 0C 04 C8 8D 00
 14.310195 1  18FEF10Bx       Rx   d 8 FF 69 0B FF FF FF FF FF
 14.321170 1  100             Rx   d 8 F2 03 97 0C 0A C8 8D 00
 14.330943 1  CF00400x        Rx   d 8 FF FF 81 8F 1F FF FF FF
 14.330943 1  CF00300x        Rx   d 8 FF 0C 04 FF FF FF FF FF
 14.336663 1  200             Rx   d 8 C1 04 DD 04 44 04 C1 04
 14.372843 1  100             Rx   d 8 F2 03 97 0C 0A C8 8D 00
 14.397302 1  CF00400x        Rx   d 8 FF FF 81 8F 1F FF FF FF
 14.397302 1  CF00300x        Rx   d 8 FF 0C 04 FF FF FF FF FF
 14.397302 1  18FEF200x       Rx   d 8 45 00 0C FF FF FF FF FF
 14.418261 1  18FEF10Bx       Rx   d 8 FF 69 0B FF FF FF FF FF
 14.423790 1  100             Rx   d 8 F2 03 97 0C 0B C8 8D 00
 14.437304 1  200             Rx   d 8 6C 04 AD 04 B8 04 56 04
 14.459266 1  CF00400x        Rx   d 8 FF FF 80 6E 1F FF FF FF
 14.459266 1  CF00300x        Rx   d 8 FF 09 03 FF FF FF FF FF
 14.461397 1  300             Rx   d 4 0C 00 00 00
 14.475121 1  100             Rx   d 8 EE 03 98 09 09 C8 8D 00
 14.520874 1  CF00400x        Rx   d 8 FF FF 80 6E 1F FF FF FF
 14.520874 1  CF00300x        Rx   d 8 FF 09 03 FF FF FF FF FF
 14.520874 1  18FEF10Bx       Rx   d 8 FF 45 0B FF FF FF FF FF
 14.523887 1  400             Rx   d 6 00 79 B6 00 00 00
 14.526342 1  100             Rx   d 8 EE 03 98 09 01 C8 8D 00
 14.538097 1  200             Rx   d 8 8A 04 66 04 5E 04 29 04
 14.577718 1  100             Rx   d 8 EE 03 98 09 06 C8 8D 00
 14.585508 1  CF00400x        Rx   d 8 FF FF 80 6E 1F FF FF FF
 14.585508 1  CF00300x        Rx   d 8 FF 09 03 FF FF FF FF FF
 14.627042 1  18FEF10Bx       Rx   d 8 FF 45 0B FF FF FF FF FF
 14.628082 1  100             Rx   d 8 EE 03 98 09 08 C8 8D 00
 14.639115 1  200             Rx   d 8 05 04 B2 04 84 04 3D 04
 14.648021 1  CF00400x        Rx   d 8 FF FF 80 5E 1F FF FF FF
 14.648021 1  CF00300x        Rx   d 8 FF 0A 04 FF FF FF FF FF
 14.661994 1  300             Rx   d 4 0C 00 00 00
 14.678613 1  100             Rx   d 8 EC 03 98 0A 08 C8 8D 00
 14.710660 1  CF00400x        Rx   d 8 FF FF 80 5E 1F FF FF FF
 14.711185 1  CF00300x        Rx   d 8 FF 0A 04 FF FF FF FF FF
 14.729619 1  100             Rx   d 8 EC 03 98 0A 08 C8 8D 00
 14.731740 1  18FEF10Bx       Rx   d 8 FF 21 0B FF FF FF FF FF
 14.740163 1  200             Rx   d 8 7F 04 3E 04 93 04 32 04
 14.772400 1  CF00400x        Rx   d 8 FF FF 80 5E 1F FF FF FF
 14.772400 1  CF00300x        Rx   d 8 FF 0A 04 FF FF FF FF FF
 14.780598 1  100             Rx   d 8 EC 03 98 0A 05 C8 8D 00
 14.831091 1  100             Rx   d 8 EC 03 98 0A 0C C8 8D 00
 14.834366 1  CF00400x        Rx   d 8 FF FF 80 5E 1F FF FF FF
 14.834366 1  CF00300x        Rx   d 8 FF 0A 04 FF FF FF FF FF
 14.834366 1  18FEF10Bx       Rx   d 8 FF 21 0B FF FF FF FF FF
 14.840739 1  200             Rx   d 8 8B 04 1F 04 9C 04 8F 04
 14.862553 1  300             Rx   d 4 0C 00 00 00
 14.881723 1  100             Rx   d 8 E6 03 98 08 03 C8 8D 00
 14.895688 1  CF00400x        Rx   d 8 FF FF 80 34 1F FF FF FF
 14.895688 1  CF00300x        Rx   d 8 FF 08 03 FF FF FF FF FF
 14.916229 1  18FEF200x       Rx   d 8 38 00 08 FF FF FF FF FF
 14.932120 1  100             Rx   d 8 E6 03 98 08 08 C8 8D 00
 14.936820 1  18FEF10Bx       Rx   d 8 FF FD 0A FF FF FF FF FF
 14.941711 1  200             Rx   d 8 73 04 DE 03 9E 04 16 04
 14.957721 1  CF00400x        Rx   d 8 FF FF 80 34 1F FF FF FF
 14.957721 1  CF00300x        Rx   d 8 FF 08 03 FF FF FF FF FF
 14.982877 1  100             Rx   d 8 E6 03 98 08 0E C8 8D 00
 14.993618 1  7F0             Rx   d 8 06 00 00 00 00 00 00 00
 14.996745 1  7F1             Rx   d 8 06 00 00 00 00 00 00 00
 15.019595 1  CF00400x        Rx   d 8 FF FF 80 E1 1E FF FF FF
 15.019595 1  CF00300x        Rx   d 8 FF 08 03 FF FF FF FF FF
 15.024151 1  1CECFF00x       Rx   d 8 20 0A 00 02 FF CA FE 00
 15.024151 1  1CEBFF00x       Rx   d 8 01 01 FF 2A 05 1F 01 8B
 15.025180 1  400             Rx   d 6 00 79 B6 00 00 00
 15.033552 1  100             Rx   d 8 0B 04 98 08 0E C8 8D 00
 15.040435 1  18FEF10Bx       Rx   d 8 FF D4 0A FF FF FF FF FF
 15.042450 1  200             Rx   d 8 06 04 01 04 0A 04 6E 04
 15.063399 1  300             Rx   d 4 0C 00 00 00
 15.075047 1  1CEBFF00x       Rx   d 8 02 02 07 01 FF FF FF FF
 15.081847 1  CF00400x        Rx   d 8 FF FF 7E 7D 1C FF FF FF
 15.081847 1  CF00300x        Rx   d 8 FF 04 02 FF FF FF FF FF
 15.084397 1  100             Rx   d 8 F0 02 99 04 00 C8 8D 00
 15.135166 1  100             Rx   d 8 7F 03 99 04 04 C8 8D 00
 15.143229 1  CF00400x        Rx   d 8 FF FF 7E D6 22 FF FF FF
 15.143229 1  CF00300x        Rx   d 8 FF 04 02 FF FF FF FF FF
 15.144750 1  18FEF10Bx       Rx   d 8 FF D4 0A FF FF FF FF FF
 15.144750 1  200             Rx   d 8 76 04 98 04 14 04 0F 04
 15.185697 1  100             Rx   d 8 17 04 99 04 07 C8 8D 00
 15.185697 1  18FEEE00x       Rx   d 8 4D 39 FF FF FF FF FF FF
 15.185697 1  18FEFC17x       Rx   d 8 FF C8 FF FF FF FF FF FF
 15.185697 1  18FEF700x       Rx   d 8 FF FF FF FF 1A 01 FF FF
 15.207942 1  CF00400x        Rx   d 8 FF FF 7E 9D 22 FF FF FF
 15.207942 1  CF00300x        Rx   d 8 FF 04 02 FF FF FF FF FF
 15.236724 1  100             Rx   d 8 1E 03 99 04 05 C8 8D 00
 15.245751 1  200             Rx   d 8 D3 03 1C 04 85 04 7A 04
 15.249892 1  18FEF10Bx       Rx   d 8 FF A6 0A FF FF FF FF FF
 15.264519 1  300             Rx   d 4 0C 00 00 00
 15.271105 1  CF00400x        Rx   d 8 FF FF 7F 38 1A FF FF FF
 15.271642 1  CF00300x        Rx   d 8 FF 06 02 FF FF FF FF FF
 15.287372 1  100             Rx   d 8 31 04 9A 06 01 C8 8D 00
 15.333330 1  CF00400x        Rx   d 8 FF FF 7F A9 1B FF FF FF
 15.333330 1  CF00300x        Rx   d 8 FF 06 02 FF FF FF FF FF
 15.338404 1  100             Rx   d 8 A7 03 9A 06 06 C8 8D 00
 15.346573 1  200             Rx   d 8 13 04 38 04 FB 03 53 04
 15.353981 1  18FEF10Bx       Rx   d 8 FF A6 0A FF FF FF FF FF
 15.389067 1  100             Rx   d 8 E5 03 9A 06 0C C8 8D 00
 15.395004 1  CF00400x        Rx   d 8 FF FF 7F 29 18 FF FF FF
 15.395004 1  CF00300x        Rx   d 8 FF 06 02 FF FF FF FF FF
 15.436613 1  18FEF200x       Rx   d 8 31 00 06 FF FF FF FF FF
 15.440040 1  100             Rx   d 8 1C 04 9B 0A 03 C8 8D 00
 15.446890 1  200             Rx   d 8 EA 03 3B 04 E0 03 32 04
 15.457138 1  CF00400x        Rx   d 8 FF FF 80 DF 21 FF FF FF
 15.458216 1  CF00300x        Rx   d 8 FF 0A 04 FF FF FF FF FF
 15.458216 1  18FEF10Bx       Rx   d 8 FF 7B 0A FF FF FF FF FF
 15.465618 1  300             Rx   d 4 0C 00 00 00
 15.490921 1  100             Rx   d 8 F3 03 9B 0A 02 C8 8D 00
 15.520635 1  CF00400x        Rx   d 8 FF FF 80 6B 22 FF FF FF
 15.521661 1  CF00300x        Rx   d 8 FF 0A 04 FF FF FF FF FF
 15.525692 1  400             Rx   d 6 00 79 B7 00 00 00
 15.541440 1  100             Rx   d 8 6D 04 9B 0A 0E C8 8D 00
 15.548007 1  200             Rx   d 8 0B 04 B8 03 3A 04 EC 03
 15.562581 1  18FEF10Bx       Rx   d 8 FF 7B 0A FF FF FF FF FF
 15.583890 1  CF00400x        Rx   d 8 FF FF 80 4E 18 FF FF FF
 15.585136 1  CF00300x        Rx   d 8 FF 0A 04 FF FF FF FF FF
 15.592161 1  100             Rx   d 8 4F 04 9B 0A 02 C8 8D 00
 15.643020 1  100             Rx   d 8 CD 03 9B 08 0E C8 8D 00
 15.646673 1  CF00400x        Rx   d 8 FF FF 7F 54 1F FF FF FF
 15.647792 1  CF00300x        Rx   d 8 FF 08 03 FF FF FF FF FF
 15.648821 1  200             Rx   d 8 5B 04 E9 03 1F 04 2E 04
 15.666846 1  300             Rx   d 4 0C 00 00 00
 15.668359 1  18FEF10Bx       Rx   d 8 FF 4F 0A FF FF FF FF FF
 15.693954 1  100             Rx   d 8 D0 03 9B 08 01 C8 8D 00
 15.709658 1  CF00400x        Rx   d 8 FF FF 7F 93 1E FF FF FF
 15.709658 1  CF00300x        Rx   d 8 FF 08 03 FF FF FF FF FF
 15.745053 1  100             Rx   d 8 EE 02 9B 08 0A C8 8D 00
 15.749341 1  200             Rx   d 8 15 04 0C 04 DB 03 B8 03
 15.772630 1  CF00400x        Rx   d 8 FF FF 7F D9 1D FF FF FF
 15.772630 1  CF00300x        Rx   d 8 FF 08 03 FF FF FF FF FF
 15.772630 1  18FEF10Bx       Rx   d 8 FF 4F 0A FF FF FF FF FF
 15.795588 1  100             Rx   d 8 35 04 9B 08 08 C8 8D 00
 15.834200 1  CF00400x        Rx   d 8 FF FF 7F 19 20 FF FF FF
 15.834200 1  CF00300x        Rx   d 8 FF 08 03 FF FF FF FF FF
 15.846471 1  100             Rx   d 8 15 04 9C 04 0A C8 8D 00
 15.849955 1  200             Rx   d 8 4F 04 69 04 ED 03 13 04
 15.867694 1  300             Rx   d 4 0C 00 00 00
 15.875556 1  18FEF10Bx       Rx   d 8 FF 1F 0A FF FF FF FF FF
 15.896277 1  CF00400x        Rx   d 8 FF FF 7E 7F 16 FF FF FF
 15.896780 1  CF00300x        Rx   d 8 FF 04 01 FF FF FF FF FF
 15.896780 1  100             Rx   d 8 93 03 9C 04 00 C8 8D 00
 15.937913 1  18FEF200x       Rx   d 8 2A 00 04 FF FF FF FF FF
 15.947776 1  100             Rx   d 8 E9 02 9C 04 06 C8 8D 00
 15.951101 1  200             Rx   d 8 D8 03 68 04 58 04 EA 03
 15.959212 1  CF00400x        Rx   d 8 FF FF 7E FE 1E FF FF FF
 15.959212 1  CF00300x        Rx   d 8 FF 04 01 FF FF FF FF FF
 15.980199 1  18FEF10Bx       Rx   d 8 FF 1F 0A FF FF FF FF FF
 15.998230 1  100             Rx   d 8 48 04 9C 04 00 C8 8D 00
 16.020717 1  CF00400x        Rx   d 8 FF FF 7E 2D 25 FF FF FF
 16.020717 1  CF00300x        Rx   d 8 FF 04 01 FF FF FF FF FF
 16.026759 1  400             Rx   d 6 00 79 B7 00 00 00
 16.048846 1  100             Rx   d 8 9E 04 9C 03 00 C8 8D 00
 16.053318 1  200             Rx   d 8 03 04 8C 03 B0 03 3C 04
 16.068434 1  300             Rx   d 4 0C 00 00 00
 16.075860 1  1CECFF00x       Rx   d 8 20 0A 00 02 FF CA FE 00
 16.075860 1  1CEBFF00x       Rx   d 8 01 01 FF 2A 05 1F 01 8B
 16.082438 1  CF00400x        Rx   d 8 FF FF 7E 2A 1B FF FF FF
 16.082438 1  CF00300x        Rx   d 8 FF 03 01 FF FF FF FF FF
 16.082438 1  18FEF10Bx       Rx   d 8 FF EC 09 FF FF FF FF FF
 16.099788 1  100             Rx   d 8 4C 03 9C 03 08 C8 8D 00
 16.127078 1  1CEBFF00x       Rx   d 8 02 02 07 01 FF FF FF FF
 16.143885 1  CF00400x        Rx   d 8 FF FF 7E 0E 1E FF FF FF
 16.143885 1  CF00300x        Rx   d 8 FF 03 01 FF FF FF FF FF
 16.150250 1  100             Rx   d 8 43 04 9C 03 08 C8 8D 00
 16.153889 1  200             Rx   d 8 15 04 7F 03 F9 03 F5 03
 16.185168 1  18FEF10Bx       Rx   d 8 FF EC 09 FF FF FF FF FF
 16.200461 1  100             Rx   d 8 41 04 9C 03 00 C8 8D 00
 16.206611 1  CF00400x        Rx   d 8 FF FF 7E 49 19 FF FF FF
 16.207620 1  CF00300x        Rx   d 8 FF 03 01 FF FF FF FF FF
 16.207620 1  18FEEE00x       Rx   d 8 4E 3A FF FF FF FF FF FF
 16.207620 1  18FEFC17x       Rx   d 8 FF C8 FF FF FF FF FF FF
 16.207620 1  18FEF700x       Rx   d 8 FF FF FF FF 1B 01 FF FF
 16.250838 1  100             Rx   d 8 2F 03 9C 00 04 C8 8D 00
 16.255145 1  200             Rx   d 8 DB 03 1F 04 2A 04 26 04
 16.269224 1  CF00400x        Rx   d 8 FF FF 7D F7 1B FF FF FF
 16.269224 1  CF00300x        Rx   d 8 FF 00 00 FF FF FF FF FF
 16.269224 1  300             Rx   d 4 0C 00 00 00
 16.289861 1  18FEF10Bx       Rx   d 8 FF B1 09 FF FF FF FF FF
 16.306810 1  100             Rx   d 8 0F 03 9C 00 02 C8 8D 00
 16.332186 1  CF00400x        Rx   d 8 FF FF 7D 0A 18 FF FF FF
 16.333201 1  CF00300x        Rx   d 8 FF 00 00 FF FF FF FF FF
 16.355700 1  200             Rx   d 8 C0 03 79 03 9E 03 EB 03
 16.357287 1  100             Rx   d 8 8F 04 9C 00 03 C8 8D 00
 16.395115 1  CF00400x        Rx   d 8 FF FF 7D A8 15 FF FF FF
 16.395115 1  CF00300x        Rx   d 8 FF 00 00 FF FF FF FF FF
 16.395636 1  18FEF10Bx       Rx   d 8 FF B1 09 FF FF FF FF FF
 16.407820 1  100             Rx   d 8 6F 04 9C 00 00 C8 8D 00
 16.457098 1  200             Rx   d 8 9E 03 F4 03 F0 03 60 03
 16.457098 1  CF00400x        Rx   d 8 FF FF 7D C3 1B FF FF FF
 16.457098 1  CF00300x        Rx   d 8 FF 00 00 FF FF FF FF FF
 16.457098 1  18FEF200x       Rx   d 8 1E 00 00 FF FF FF FF FF
 16.458600 1  100             Rx   d 8 27 04 9C 00 00 C8 8D 00
 16.469794 1  300             Rx   d 4 0C 00 00 00
 16.498389 1  18FEF10Bx       Rx   d 8 FF 6E 09 FF FF FF FF FF
 16.509255 1  100             Rx   d 8 CA 02 9C 00 00 C8 8D 00
 16.518902 1  CF00400x        Rx   d 8 FF FF 7D B4 1A FF FF FF
 16.518902 1  CF00300x        Rx   d 8 FF 00 00 FF FF FF FF FF
 16.527864 1  400             Rx   d 6 00 79 B6 00 00 00
 16.557735 1  200             Rx   d 8 F7 03 63 03 5F 03 C4 03
 16.560388 1  100             Rx   d 8 10 04 9C 00 00 C8 8D 00
 16.580508 1  CF00400x        Rx   d 8 FF FF 7D 7C 18 FF FF FF
 16.580508 1  CF00300x        Rx   d 8 FF 00 00 FF FF FF FF FF
 16.602780 1  18FEF10Bx       Rx   d 8 FF 6E 09 FF FF FF FF FF
 16.610978 1  100             Rx   d 8 17 03 9C 00 00 C8 8D 00
 16.644259 1  CF00400x        Rx   d 8 FF FF 7D 02 15 FF FF FF
 16.644792 1  CF00300x        Rx   d 8 FF 00 00 FF FF FF FF FF
 16.658536 1  200             Rx   d 8 AF 03 99 03 CC 03 93 03
 16.661767 1  100             Rx   d 8 01 04 9C 00 00 C8 8D 00
 16.670391 1  300             Rx   d 4 0C 00 00 00
 16.706466 1  CF00400x        Rx   d 8 FF FF 7D B5 19 FF FF FF
 16.706466 1  CF00300x        Rx   d 8 FF 00 00 FF FF FF FF FF
 16.706466 1  18FEF10Bx       Rx   d 8 FF 29 09 FF FF FF FF FF
 16.712706 1  100             Rx   d 8 B7 03 9C 00 08 C8 8D 00
 16.759228 1  200             Rx   d 8 D7 03 95 03 AB 03 51 03
 16.763777 1  100             Rx   d 8 12 04 9C 00 06 C8 8D 00
 16.768965 1  CF00400x        Rx   d 8 FF FF 7D D7 1D FF FF FF
 16.768965 1  CF00300x        Rx   d 8 FF 00 00 FF FF FF FF FF
 16.810375 1  18FEF10Bx       Rx   d 8 FF 29 09 FF FF FF FF FF
 16.814280 1  100             Rx   d 8 9A 03 9C 00 01 C8 8D 00
 16.831056 1  CF00400x        Rx   d 8 FF FF 7D 13 15 FF FF FF
 16.831056 1  CF00300x        Rx   d 8 FF 00 00 FF FF FF FF FF
 16.860203 1  200             Rx   d 8 B9 03 EA 03 83 03 A9 03
 16.864845 1  100             Rx   d 8 D2 03 9D 00 02 C8 8D 00
 16.871446 1  300             Rx   d 4 0C 00 00 00
 16.892774 1  CF00400x        Rx   d 8 FF FF 7D A5 1A FF FF FF
 16.893351 1  CF00300x        Rx   d 8 FF 00 00 FF FF FF FF FF
 16.913642 1  18FEF10Bx       Rx   d 8 FF DF 08 FF FF FF FF FF
 16.915740 1  100             Rx   d 8 1E 04 9D 00 00 C8 8D 00
 16.955089 1  CF00400x        Rx   d 8 FF FF 7D 2D 23 FF FF FF
 16.955089 1  CF00300x        Rx   d 8 FF 00 00 FF FF FF FF FF
 16.961123 1  200             Rx   d 8 9A 03 3D 03 75 03 5D 03
 16.966193 1  100             Rx   d 8 48 03 9D 00 00 C8 8D 00
 16.976211 1  18FEF200x       Rx   d 8 1E 00 00 FF FF FF FF FF
 17.016648 1  100             Rx   d 8 35 04 9D 00 06 C8 8D 00
 17.017652 1  CF00400x        Rx   d 8 FF FF 7D DB 1C FF FF FF
 17.017652 1  CF00300x        Rx   d 8 FF 00 00 FF FF FF FF FF
 17.017652 1  18FEF10Bx       Rx   d 8 FF DF 08 FF FF FF FF FF
 17.028898 1  400             Rx   d 6 00 79 B5 00 00 00
 17.061813 1  200             Rx   d 8 AF 03 76 03 A5 03 1E 03
 17.067506 1  100             Rx   d 8 E8 03 9D 02 04 C8 8D 00
 17.073784 1  300             Rx   d 4 0C 00 00 00
 17.079910 1  CF00400x        Rx   d 8 FF FF 7E A2 17 FF FF FF
 17.079910 1  CF00300x        Rx   d 8 FF 02 01 FF FF FF FF FF
 17.118265 1  100             Rx   d 8 C4 02 9D 02 00 C8 8D 00
 17.125677 1  18FEF10Bx       Rx   d 8 FF 97 08 FF FF FF FF FF
 17.127708 1  1CECFF00x       Rx   d 8 20 0A 00 02 FF CA FE 00
 17.127708 1  1CEBFF00x       Rx   d 8 01 01 FF 2A 05 1F 01 8B
 17.147115 1  CF00400x        Rx   d 8 FF FF 7E 55 23 FF FF FF
 17.147115 1  CF00300x        Rx   d 8 FF 02 01 FF FF FF FF FF
 17.162921 1  200             Rx   d 8 B3 03 6B 03 0C 03 7F 03
 17.169326 1  100             Rx   d 8 AD 03 9D 02 06 C8 8D 00
 17.178214 1  1CEBFF00x       Rx   d 8 02 02 07 01 FF FF FF FF
 17.208438 1  CF00400x        Rx   d 8 FF FF 7E 45 1B FF FF FF
 17.208438 1  CF00300x        Rx   d 8 FF 02 01 FF FF FF FF FF
 17.208438 1  18FEEE00x       Rx   d 8 4E 3A FF FF FF FF FF FF
 17.208438 1  18FEFC17x       Rx   d 8 FF C8 FF FF FF FF FF FF
 17.209444 1  18FEF700x       Rx   d 8 FF FF FF FF 1B 01 FF FF
 17.220556 1  100             Rx   d 8 3F 04 9D 02 03 C8 8D 00
 17.229628 1  18FEF10Bx       Rx   d 8 FF 97 08 FF FF FF FF FF
 17.263511 1  200             Rx   d 8 F8 02 67 03 F0 02 F2 02
 17.270860 1  CF00400x        Rx   d 8 FF FF 7E B5 20 FF FF FF
 17.270860 1  CF00300x        Rx   d 8 FF 03 01 FF FF FF FF FF
 17.271418 1  100             Rx   d 8 CF 03 9D 03 02 C8 8D 00
 17.274496 1  300             Rx   d 4 0C 00 00 00
 17.321869 1  100             Rx   d 8 D5 03 9D 03 04 C8 8D 00
 17.332929 1  CF00400x        Rx   d 8 FF FF 7E D2 1F FF FF FF
 17.332929 1  CF00300x        Rx   d 8 FF 03 01 FF FF FF FF FF
 17.332929 1  18FEF10Bx       Rx   d 8 FF 4F 08 FF FF FF FF FF
 17.364034 1  200             Rx   d 8 FC 02 47 03 92 03 E8 02
 17.372809 1  100             Rx   d 8 1F 04 9D 03 00 C8 8D 00
 17.394684 1  CF00400x        Rx   d 8 FF FF 7E 2A 19 FF FF FF
 17.395197 1  CF00300x        Rx   d 8 FF 03 01 FF FF FF FF FF
 17.423508 1  100             Rx   d 8 D3 03 9D 03 06 C8 8D 00
 17.436289 1  18FEF10Bx       Rx   d 8 FF 4F 08 FF FF FF FF FF
 17.457166 1  CF00400x        Rx   d 8 FF FF 7E 0D 1B FF FF FF
 17.457166 1  CF00300x        Rx   d 8 FF 04 01 FF FF FF FF FF
 17.464924 1  200             Rx   d 8 DC 02 8E 03 C1 02 E7 02
 17.474445 1  100             Rx   d 8 4D 03 9D 04 09 C8 8D 00
 17.474961 1  300             Rx   d 4 0C 00 00 00
 17.478066 1  18FEF200x       Rx   d 8 2A 00 04 FF FF FF FF FF
 17.519588 1  CF00400x        Rx   d 8 FF FF 7E E5 19 FF FF FF
 17.519588 1  CF00300x        Rx   d 8 FF 04 01 FF FF FF FF FF
 17.525113 1  100             Rx   d 8 CF 02 9D 04 08 C8 8D 00
 17.530156 1  400             Rx   d 6 00 79 B6 00 00 00
 17.541101 1  18FEF10Bx       Rx   d 8 FF 0A 08 FF FF FF FF FF
 17.565626 1  200             Rx   d 8 C1 02 15 03 00 03 7E 03
 17.575684 1  100             Rx   d 8 3D 04 9D 04 00 C8 8D 00
 17.582796 1  CF00400x        Rx   d 8 FF FF 7E FE 22 FF FF FF
 17.582796 1  CF00300x        Rx   d 8 FF 04 01 FF FF FF FF FF
 17.626384 1  100             Rx   d 8 7A 03 9D 04 00 C8 8D 00
 17.644236 1  CF00400x        Rx   d 8 FF FF 7E CD 1D FF FF FF
 17.644588 1  CF00300x        Rx   d 8 FF 02 01 FF FF FF FF FF
 17.644588 1  18FEF10Bx       Rx   d 8 FF C5 07 FF FF FF FF FF
 17.666473 1  200             Rx   d 8 D5 02 AB 02 BD 02 B7 02
 17.675567 1  300             Rx   d 4 0C 00 00 00
 17.677156 1  100             Rx   d 8 40 03 9E 02 00 C8 8D 00
 17.706050 1  CF00400x        Rx   d 8 FF FF 7E 63 1E FF FF FF
 17.706050 1  CF00300x        Rx   d 8 FF 02 01 FF FF FF FF FF
 17.727974 1  100             Rx   d 8 2B 04 9E 02 02 C8 8D 00
 17.747693 1  18FEF10Bx       Rx   d 8 FF C5 07 FF FF FF FF FF
 17.767110 1  200             Rx   d 8 C5 02 C8 02 58 03 0E 03
 17.768634 1  CF00400x        Rx   d 8 FF FF 7E 46 1D FF FF FF
 17.768634 1  CF00300x        Rx   d 8 FF 02 01 FF FF FF FF FF
 17.778296 1  100             Rx   d 8 79 03 9E 02 00 C8 8D 00
 17.829016 1  100             Rx   d 8 19 03 9E 02 01 C8 8D 00
 17.830533 1  CF00400x        Rx   d 8 FF FF 7E A8 21 FF FF FF
 17.830533 1  CF00300x        Rx   d 8 FF 02 01 FF FF FF FF FF
 17.851767 1  18FEF10Bx       Rx   d 8 FF 7D 07 FF FF FF FF FF
 17.867667 1  200             Rx   d 8 3D 03 17 03 EE 02 E0 02
 17.876486 1  300             Rx   d 4 0C 00 00 00
 17.879981 1  100             Rx   d 8 7C 03 9F 00 04 C8 8D 00
 17.892634 1  CF00400x        Rx   d 8 FF FF 7D 0A 1A FF FF FF
 17.892634 1  CF00300x        Rx   d 8 FF 00 00 FF FF FF FF FF
 17.930994 1  100             Rx   d 8 D6 02 9F 00 03 C8 8D 00
 17.955104 1  CF00400x        Rx   d 8 FF FF 7D 1F 1B FF FF FF
 17.955104 1  CF00300x        Rx   d 8 FF 00 00 FF FF FF FF FF
 17.955104 1  18FEF10Bx       Rx   d 8 FF 7D 07 FF FF FF FF FF
 17.968951 1  200             Rx   d 8 1D 03 F1 02 E1 02 18 03
 17.981606 1  100             Rx   d 8 11 04 9F 00 03 C8 8D 00
 17.996234 1  18FEF200x       Rx   d 8 1E 00 00 FF FF FF FF FF
 18.017249 1  CF00400x        Rx   d 8 FF FF 7D 76 1E FF FF FF
 18.017249 1  CF00300x        Rx   d 8 FF 00 00 FF FF FF FF FF
 18.031463 1  400             Rx   d 6 00 79 B6 00 00 00
 18.032494 1  100             Rx   d 8 85 02 9F 00 00 C8 8D 00
 18.058521 1  18FEF10Bx       Rx   d 8 FF 36 07 FF FF FF FF FF
 18.069677 1  200             Rx   d 8 27 03 A4 02 CC 02 A0 02
 18.077300 1  300             Rx   d 4 0C 00 00 00
 18.079529 1  CF00400x        Rx   d 8 FF FF 7D 48 22 FF FF FF
 18.079529 1  CF00300x        Rx   d 8 FF 00 00 FF FF FF FF FF
 18.083265 1  100             Rx   d 8 5E 04 9F 00 07 C8 8D 00
 18.133911 1  100             Rx   d 8 2E 03 9F 00 00 C8 8D 00
 18.140953 1  CF00400x        Rx   d 8 FF FF 7D 5F 15 FF FF FF
 18.141459 1  CF00300x        Rx   d 8 FF 00 00 FF FF FF FF FF
 18.162065 1  18FEF10Bx       Rx   d 8 FF 36 07 FF FF FF FF FF
 18.170527 1  200             Rx   d 8 1C 03 70 02 2E 03 1A 03
 18.179091 1  1CECFF00x       Rx   d 8 20 0A 00 02 FF CA FE 00
 18.179091 1  1CEBFF00x       Rx   d 8 01 01 FF 2A 05 1F 01 8B
 18.184714 1  100             Rx   d 8 83 03 9F 00 01 C8 8D 00
 18.203732 1  CF00400x        Rx   d 8 FF FF 7D C9 19 FF FF FF
 18.204240 1  CF00300x        Rx   d 8 FF 00 00 FF FF FF FF FF
 18.224673 1  18FEEE00x       Rx   d 8 4F 3B FF FF FF FF FF FF
 18.224673 1  18FEFC17x       Rx   d 8 FF C8 FF FF FF FF FF FF
 18.224673 1  18FEF700x       Rx   d 8 FF FF FF FF 1A 01 FF FF
 18.229986 1  1CEBFF00x       Rx   d 8 02 02 07 01 FF FF FF FF
 18.235523 1  100             Rx   d 8 1C 04 9F 00 00 C8 8D 00
 18.266117 1  CF00400x        Rx   d 8 FF FF 7E C6 1C FF FF FF
 18.266117 1  CF00300x        Rx   d 8 FF 03 01 FF FF FF FF FF
 18.266117 1  18FEF10Bx       Rx   d 8 FF F3 06 FF FF FF FF FF
 18.271997 1  200             Rx   d 8 E2 02 10 03 CA 02 BE 02
 18.277988 1  300             Rx   d 4 0C 00 00 00
 18.287179 1  100             Rx   d 8 6B 03 9F 03 09 C8 8D 00
 18.328552 1  CF00400x        Rx   d 8 FF FF 7E 7F 19 FF FF FF
 18.328552 1  CF00300x        Rx   d 8 FF 03 01 FF FF FF FF FF
 18.337862 1  100             Rx   d 8 EA 03 9F 03 06 C8 8D 00
 18.369872 1  18FEF10Bx       Rx   d 8 FF F3 06 FF FF FF FF FF
 18.372917 1  200             Rx   d 8 FE 02 C1 02 BE 02 0E 03
 18.388401 1  100             Rx   d 8 F8 03 9F 03 00 C8 8D 00
 18.390918 1  CF00400x        Rx   d 8 FF FF 7E 4B 17 FF FF FF
 18.391424 1  CF00300x        Rx   d 8 FF 03 01 FF FF FF FF FF
 18.439123 1  100             Rx   d 8 1A 03 9F 03 0A C8 8D 00
 18.453509 1  CF00400x        Rx   d 8 FF FF 7F C0 1B FF FF FF
 18.453509 1  CF00300x        Rx   d 8 FF 07 03 FF FF FF FF FF
 18.473755 1  200             Rx   d 8 CF 02 2B 02 8E 02 E2 02
 18.474261 1  18FEF10Bx       Rx   d 8 FF B8 06 FF FF FF FF FF
 18.479025 1  300             Rx   d 4 0C 00 00 00
 18.489923 1  100             Rx   d 8 D3 03 9F 07 0C C8 8D 00
 18.516279 1  CF00400x        Rx   d 8 FF FF 7F 51 20 FF FF FF
 18.516279 1  CF00300x        Rx   d 8 FF 07 03 FF FF FF FF FF
 18.516279 1  18FEF200x       Rx   d 8 35 00 07 FF FF FF FF FF
 18.532156 1  400             Rx   d 6 00 79 B7 00 00 00
 18.540681 1  100             Rx   d 8 DC 02 9F 07 04 C8 8D 00
 18.574925 1  200             Rx   d 8 97 02 8A 02 72 02 B8 02
 18.578071 1  CF00400x        Rx   d 8 FF FF 7F B5 1C FF FF FF
 18.578071 1  CF00300x        Rx   d 8 FF 07 03 FF FF FF FF FF
 18.578071 1  18FEF10Bx       Rx   d 8 FF B8 06 FF FF FF FF FF
 18.592169 1  100             Rx   d 8 38 03 9F 07 09 C8 8D 00
 18.639967 1  CF00400x        Rx   d 8 FF FF 7F E0 16 FF FF FF
 18.640483 1  CF00300x        Rx   d 8 FF 07 03 FF FF FF FF FF
 18.643023 1  100             Rx   d 8 73 03 9F 07 00 C8 8D 00
 18.675473 1  200             Rx   d 8 30 02 9E 02 44 02 6B 02
 18.679636 1  300             Rx   d 4 0C 00 00 00
 18.681200 1  18FEF10Bx       Rx   d 8 FF 8A 06 FF FF FF FF FF
 18.693688 1  100             Rx   d 8 EE 03 A0 0B 0B C8 8D 00
 18.701942 1  CF00400x        Rx   d 8 FF FF 80 50 22 FF FF FF
 18.701942 1  CF00300x        Rx   d 8 FF 0B 04 FF FF FF FF FF
 18.744213 1  100             Rx   d 8 F1 02 A0 0B 0F C8 8D 00
 18.763394 1  CF00400x        Rx   d 8 FF FF 80 A8 14 FF FF FF
 18.763394 1  CF00300x        Rx   d 8 FF 0B 04 FF FF FF FF FF
 18.775957 1  200             Rx   d 8 89 02 96 02 2F 02 80 02
 18.783926 1  18FEF10Bx       Rx   d 8 FF 8A 06 FF FF FF FF FF
 18.795098 1  100             Rx   d 8 4F 04 A0 0B 03 C8 8D 00
 18.824794 1  CF00400x        Rx   d 8 FF FF 80 5D 18 FF FF FF
 18.824794 1  CF00300x        Rx   d 8 FF 0B 04 FF FF FF FF FF
 18.845489 1  100             Rx   d 8 14 03 A0 0B 0D C8 8D 00
 18.876543 1  200             Rx   d 8 3C 02 9B 02 AA 02 A9 02
 18.880200 1  300             Rx   d 4 0C 00 00 00
 18.886726 1  CF00400x        Rx   d 8 FF FF 7F C4 21 FF FF FF
 18.886726 1  CF00300x        Rx   d 8 FF 07 02 FF FF FF FF FF
 18.886726 1  18FEF10Bx       Rx   d 8 FF 5F 06 FF FF FF FF FF
 18.896325 1  100             Rx   d 8 2A 03 9F 07 08 C8 8D 00
 18.946896 1  100             Rx   d 8 55 03 9F 07 0D C8 8D 00
 18.948436 1  CF00400x        Rx   d 8 FF FF 7F DE 14 FF FF FF
 18.948436 1  CF00300x        Rx   d 8 FF 07 02 FF FF FF FF FF
 18.977365 1  200             Rx   d 8 64 02 13 02 22 02 32 02
 18.990058 1  18FEF10Bx       Rx   d 8 FF 5F 06 FF FF FF FF FF
 18.997670 1  100             Rx   d 8 EE 02 9F 07 06 C8 8D 00
 19.010530 1  CF00400x        Rx   d 8 FF FF 7F 06 23 FF FF FF
 19.010530 1  CF00300x        Rx   d 8 FF 07 02 FF FF FF FF FF
 19.031382 1  18FEF200x       Rx   d 8 33 00 07 FF FF FF FF FF
 19.032914 1  400             Rx   d 6 00 79 B6 00 00 00
 19.048458 1  100             Rx   d 8 8A 04 A0 1B 17 C8 8D 00
 19.072258 1  CF00400x        Rx   d 8 FF FF 86 47 1E FF FF FF
 19.072258 1  CF00300x        Rx   d 8 FF 1B 0A FF FF FF FF FF
 19.078215 1  200             Rx   d 8 A4 02 40 02 78 02 48 02
 19.080878 1  300             Rx   d 4 0C 00 00 00
